
SetupTitle, inv-vovg
PrimitiveTest, I/V Sweep
TestParameter, Context.MainFrame, B1500A
TestParameter, Channel.UnitType, SMU, SMU, SMU, SMU
TestParameter, Channel.Unit, SMU4:HR, SMU1:HP, SMU2:HP, SMU3:HR
TestParameter, Channel.IName, Ibg, Idd, Io1, Io2
TestParameter, Channel.VName, Vbg, Vdd, Vo1, VSS
TestParameter, Channel.Mode, V, V, I, COMMON
TestParameter, Channel.Func, VAR1, VAR2, CONST, CONST
TestParameter, Channel.Index, 
TestParameter, Channel.Time, 
TestParameter, Measurement.Port.Unit, SMU4:HR, SMU1:HP, SMU2:HP, SMU3:HR
TestParameter, Measurement.Port.SeriesResistor, NONE, NONE, NONE, NONE
TestParameter, Measurement.Port.Filter, ON, ON, ON, ON
TestParameter, Measurement.Port.OutputVoltageComparison, 0, 0, 0, 0
TestParameter, Measurement.Primary.Locus, Double
TestParameter, Measurement.Primary.Scale, LINEAR
TestParameter, Measurement.Primary.Start, 0
TestParameter, Measurement.Primary.Stop, 3
TestParameter, Measurement.Primary.Step, 0.03
TestParameter, Measurement.Primary.Compliance, 1E-08
TestParameter, Measurement.Primary.PowerCompliance, 0
TestParameter, Measurement.Aborting.Condition, CONTINUE AT ANY
TestParameter, Measurement.PostOutput.Value, START
TestParameter, Measurement.PostOutput.Retention, OFF
TestParameter, Measurement.Secondary.Start, 1
TestParameter, Measurement.Secondary.Count, 3
TestParameter, Measurement.Secondary.Step, 1
TestParameter, Measurement.Secondary.Compliance, 0.001
TestParameter, Measurement.Secondary.PowerCompliance, 0
TestParameter, Measurement.Bias.Source, 0, 1, 1.0000000000000001E-11, 0
TestParameter, Measurement.Bias.Compliance, 1E-08, 0.001, 5, 0.1
TestParameter, Measurement.Monitor.Unit, SMU4:HR, SMU1:HP, SMU2:HP, SMU3:HR
TestParameter, Measurement.Monitor.Adc, HR ADC, HR ADC, HR ADC, HR ADC
TestParameter, Measurement.Monitor.Measurement, Compliance Side, Compliance Side, Compliance Side, Compliance Side
TestParameter, Measurement.Monitor.RangingMode, LIMITED, LIMITED, LIMITED, LIMITED
TestParameter, Measurement.Monitor.RangeBoundary, 1nA, 1nA, 2V, 1nA
TestParameter, Measurement.Monitor.RangeRating, BY FULL RANGE, BY FULL RANGE, BY FULL RANGE
TestParameter, Measurement.Monitor.RangeRatingCoeff, 50, 50, 50
TestParameter, Measurement.Timing.Hold, 4
TestParameter, Measurement.Timing.Delay, 0
TestParameter, Measurement.Adc.HighSpeed.Mode, AUTO
TestParameter, Measurement.Adc.HighSpeed.Coeff, 1
TestParameter, Measurement.Adc.HighResolution.AutoZero, OFF
TestParameter, Measurement.Adc.HighResolution.Mode, AUTO
TestParameter, Measurement.Adc.HighResolution.Coeff, 6
TestParameter, Measurement.WaitTime.Source.Coeff, 1
TestParameter, Measurement.WaitTime.Source.Offset, 0
TestParameter, Measurement.WaitTime.Monitor.Coeff, 1
TestParameter, Measurement.WaitTime.Monitor.Offset, 0
TestParameter, Function.User.Name, absIdd, absIbg
TestParameter, Function.User.Unit, A, A
TestParameter, Function.User.Definition, abs(Idd), abs(Ibg)
TestParameter, Output.Graph.Enabled, true
TestParameter, Output.Graph.AutoScaling, false
TestParameter, Output.Graph.XAxis.Data, Vbg
TestParameter, Output.Graph.XAxis.Scale, Linear
TestParameter, Output.Graph.XAxis.Left, 0
TestParameter, Output.Graph.XAxis.Right, 3
TestParameter, Output.Graph.XAxis.RunTimeAutoScale, true
TestParameter, Output.Graph.YAxis.Data, absIdd, absIbg, Vo1
TestParameter, Output.Graph.YAxis.Scale, Linear, Linear, Linear
TestParameter, Output.Graph.YAxis.Bottom, 0, 0, -5
TestParameter, Output.Graph.YAxis.Top, 1, 1, 5
TestParameter, Output.Graph.YAxis.Group, , , 
TestParameter, Output.Graph.YAxis.RunTimeAutoScale, true, true, true
TestParameter, Output.List.Data, Vbg, Vo2, Vo1, Vbg, Vdd, Ibg, Idd, absIdd, absIbg
TestParameter, AutoAnalysis.Interpolation, false
TestParameter, AutoAnalysis.Var2StepCount, 1
TestParameter, AutoAnalysis.Var2StepScript, 
TestParameter, AutoAnalysis.Line1.Enabled, false
TestParameter, AutoAnalysis.Line1.Type, 1
TestParameter, AutoAnalysis.Line1.Fix, True
TestParameter, AutoAnalysis.Line1.YAxis, 0
TestParameter, AutoAnalysis.Line1.Point1.Type, 0
TestParameter, AutoAnalysis.Line1.Point1.XY.X, 
TestParameter, AutoAnalysis.Line1.Point1.XY.Y, 
TestParameter, AutoAnalysis.Line1.Point1.Data.Var, 
TestParameter, AutoAnalysis.Line1.Point1.Data.Condition, 
TestParameter, AutoAnalysis.Line1.Point1.Data.Start, false
TestParameter, AutoAnalysis.Line1.Point1.Data.StartVar, 
TestParameter, AutoAnalysis.Line1.Point1.Data.StartCondition, 
TestParameter, AutoAnalysis.Line1.Point2.Type, 0
TestParameter, AutoAnalysis.Line1.Point2.XY.X, 
TestParameter, AutoAnalysis.Line1.Point2.XY.Y, 
TestParameter, AutoAnalysis.Line1.Point2.Data.Var, 
TestParameter, AutoAnalysis.Line1.Point2.Data.Condition, 
TestParameter, AutoAnalysis.Line1.Point2.Data.Start, false
TestParameter, AutoAnalysis.Line1.Point2.Data.StartVar, 
TestParameter, AutoAnalysis.Line1.Point2.Data.StartCondition, 
TestParameter, AutoAnalysis.Line1.GradientExpr, 0
TestParameter, AutoAnalysis.Line2.Enabled, false
TestParameter, AutoAnalysis.Line2.Type, 1
TestParameter, AutoAnalysis.Line2.Fix, True
TestParameter, AutoAnalysis.Line2.YAxis, 0
TestParameter, AutoAnalysis.Line2.Point1.Type, 0
TestParameter, AutoAnalysis.Line2.Point1.XY.X, 
TestParameter, AutoAnalysis.Line2.Point1.XY.Y, 
TestParameter, AutoAnalysis.Line2.Point1.Data.Var, 
TestParameter, AutoAnalysis.Line2.Point1.Data.Condition, 
TestParameter, AutoAnalysis.Line2.Point1.Data.Start, false
TestParameter, AutoAnalysis.Line2.Point1.Data.StartVar, 
TestParameter, AutoAnalysis.Line2.Point1.Data.StartCondition, 
TestParameter, AutoAnalysis.Line2.Point2.Type, 0
TestParameter, AutoAnalysis.Line2.Point2.XY.X, 
TestParameter, AutoAnalysis.Line2.Point2.XY.Y, 
TestParameter, AutoAnalysis.Line2.Point2.Data.Var, 
TestParameter, AutoAnalysis.Line2.Point2.Data.Condition, 
TestParameter, AutoAnalysis.Line2.Point2.Data.Start, false
TestParameter, AutoAnalysis.Line2.Point2.Data.StartVar, 
TestParameter, AutoAnalysis.Line2.Point2.Data.StartCondition, 
TestParameter, AutoAnalysis.Line2.GradientExpr, 0
TestParameter, AutoAnalysis.Marker.Enabled, false
TestParameter, AutoAnalysis.Marker.Data.Var, 
TestParameter, AutoAnalysis.Marker.Data.Condition, 
TestParameter, AutoAnalysis.Marker.Data.Start, false
TestParameter, AutoAnalysis.Marker.Data.StartVar, 
TestParameter, AutoAnalysis.Marker.Data.StartCondition, 
MetaData, TestRecord.EntryPoint, true
MetaData, TestRecord.RecordTime, 01/11/2023 00:55:34
MetaData, TestRecord.TestTarget, 
MetaData, TestRecord.IterationIndex, 10
MetaData, TestRecord.Preservation, true
MetaData, TestRecord.Flag, 
MetaData, TestRecord.Remarks, 
MetaData, TestRecord.LinkKey, c39fec84-de60-42cc-86a0-21c3a2d5b342
MetaData, TestRecord.Parameters, 
Dimension1, 202, 202, 202, 202, 202, 202, 202, 202
Dimension2, 3, 3, 3, 3, 3, 3, 3, 3
DataName, Vbg, Vdd, Ibg, Idd, Vo1, absIdd, absIbg, Vo2
DataValue, 0, 1, -4E-13, 1.1884000000000001E-06, 0.84027999999999992, 1.1884000000000001E-06, 4E-13, 
DataValue, 0.03, 1, -3.2000000000000005E-13, 1.1844E-06, 0.8408, 1.1844E-06, 3.2000000000000005E-13, 
DataValue, 0.06, 1, 1.14E-12, 1.227E-06, 0.83532, 1.227E-06, 1.14E-12, 
DataValue, 0.09, 1, 4.1E-13, 1.2349E-06, 0.83239999999999992, 1.2349E-06, 4.1E-13, 
DataValue, 0.12, 1, -1.04E-12, 1.2166000000000001E-06, 0.83444, 1.2166000000000001E-06, 1.04E-12, 
DataValue, 0.15, 1, 1.0000000000000002E-14, 1.2174000000000002E-06, 0.83304, 1.2174000000000002E-06, 1.0000000000000002E-14, 
DataValue, 0.18, 1, 1.0000000000000002E-14, 1.2191000000000001E-06, 0.83156, 1.2191000000000001E-06, 1.0000000000000002E-14, 
DataValue, 0.21, 1, 2E-13, 1.2257000000000002E-06, 0.82872, 1.2257000000000002E-06, 2E-13, 
DataValue, 0.24, 1, 3.7000000000000004E-13, 1.2436E-06, 0.82519999999999993, 1.2436E-06, 3.7000000000000004E-13, 
DataValue, 0.27, 1, 6.7000000000000007E-13, 1.2586000000000001E-06, 0.81963999999999992, 1.2586000000000001E-06, 6.7000000000000007E-13, 
DataValue, 0.3, 1, 1.9000000000000002E-13, 1.2673000000000001E-06, 0.8186, 1.2673000000000001E-06, 1.9000000000000002E-13, 
DataValue, 0.33, 1, -4.1E-13, 1.2805E-06, 0.81204, 1.2805E-06, 4.1E-13, 
DataValue, 0.36, 1, 3.0000000000000005E-14, 1.2930000000000002E-06, 0.80175999999999992, 1.2930000000000002E-06, 3.0000000000000005E-14, 
DataValue, 0.39, 1, 3.9000000000000005E-13, 1.3044000000000002E-06, 0.79611999999999994, 1.3044000000000002E-06, 3.9000000000000005E-13, 
DataValue, 0.42, 1, -3.0000000000000003E-13, 1.3234000000000001E-06, 0.78472, 1.3234000000000001E-06, 3.0000000000000003E-13, 
DataValue, 0.45, 1, -1.1000000000000002E-12, 1.3319000000000001E-06, 0.77264, 1.3319000000000001E-06, 1.1000000000000002E-12, 
DataValue, 0.48, 1, -3.0000000000000005E-14, 1.3441000000000002E-06, 0.75623999999999991, 1.3441000000000002E-06, 3.0000000000000005E-14, 
DataValue, 0.51, 1, 4.8000000000000008E-13, 1.3459000000000001E-06, 0.73483999999999994, 1.3459000000000001E-06, 4.8000000000000008E-13, 
DataValue, 0.54, 1, -2.2000000000000002E-13, 1.3489000000000001E-06, 0.71748, 1.3489000000000001E-06, 2.2000000000000002E-13, 
DataValue, 0.57000000000000006, 1, 1.88E-12, 1.3432000000000001E-06, 0.69531999999999994, 1.3432000000000001E-06, 1.88E-12, 
DataValue, 0.6, 1, 1.51E-12, 1.3472000000000002E-06, 0.6758, 1.3472000000000002E-06, 1.51E-12, 
DataValue, 0.63, 1, -6.0000000000000009E-14, 1.3485E-06, 0.65488, 1.3485E-06, 6.0000000000000009E-14, 
DataValue, 0.66, 1, 1.6000000000000003E-13, 1.357E-06, 0.64172, 1.357E-06, 1.6000000000000003E-13, 
DataValue, 0.69000000000000006, 1, 1.3E-13, 1.3675E-06, 0.62908, 1.3675E-06, 1.3E-13, 
DataValue, 0.72, 1, 4.9E-13, 1.3743000000000001E-06, 0.61924, 1.3743000000000001E-06, 4.9E-13, 
DataValue, 0.75, 1, -1.1000000000000001E-13, 1.3991E-06, 0.60883999999999994, 1.3991E-06, 1.1000000000000001E-13, 
DataValue, 0.78, 1, 1.4E-13, 1.4152000000000002E-06, 0.60427999999999993, 1.4152000000000002E-06, 1.4E-13, 
DataValue, 0.81, 1, 8E-13, 1.4404000000000002E-06, 0.59695999999999994, 1.4404000000000002E-06, 8E-13, 
DataValue, 0.84, 1, -3.0000000000000005E-14, 1.4704000000000001E-06, 0.59283999999999992, 1.4704000000000001E-06, 3.0000000000000005E-14, 
DataValue, 0.87, 1, 5.4E-13, 1.4915000000000003E-06, 0.59076, 1.4915000000000003E-06, 5.4E-13, 
DataValue, 0.9, 1, 1.59E-12, 1.5163000000000002E-06, 0.584, 1.5163000000000002E-06, 1.59E-12, 
DataValue, 0.93, 1, -6.3E-13, 1.5568E-06, 0.58463999999999994, 1.5568E-06, 6.3E-13, 
DataValue, 0.96, 1, -5E-14, 1.5899000000000002E-06, 0.58004, 1.5899000000000002E-06, 5E-14, 
DataValue, 0.99, 1, 5E-14, 1.6060000000000002E-06, 0.58104, 1.6060000000000002E-06, 5E-14, 
DataValue, 1.02, 1, -1.31E-12, 1.6509000000000002E-06, 0.5824, 1.6509000000000002E-06, 1.31E-12, 
DataValue, 1.05, 1, -5E-13, 1.6907000000000002E-06, 0.58192, 1.6907000000000002E-06, 5E-13, 
DataValue, 1.08, 1, 9.2000000000000012E-13, 1.7323000000000001E-06, 0.58484, 1.7323000000000001E-06, 9.2000000000000012E-13, 
DataValue, 1.11, 1, 1.03E-12, 1.7793000000000003E-06, 0.5882, 1.7793000000000003E-06, 1.03E-12, 
DataValue, 1.1400000000000001, 1, 1.17E-12, 1.8313000000000002E-06, 0.5916, 1.8313000000000002E-06, 1.17E-12, 
DataValue, 1.17, 1, -5.2E-13, 1.8686000000000002E-06, 0.59468, 1.8686000000000002E-06, 5.2E-13, 
DataValue, 1.2, 1, 2.8E-13, 1.9169000000000002E-06, 0.60027999999999992, 1.9169000000000002E-06, 2.8E-13, 
DataValue, 1.23, 1, 6.8E-13, 1.9879E-06, 0.60271999999999992, 1.9879E-06, 6.8E-13, 
DataValue, 1.26, 1, 4.4000000000000004E-13, 2.0372E-06, 0.60783999999999994, 2.0372E-06, 4.4000000000000004E-13, 
DataValue, 1.29, 1, -7.8000000000000011E-13, 2.0805000000000002E-06, 0.61456, 2.0805000000000002E-06, 7.8000000000000011E-13, 
DataValue, 1.32, 1, 8.2E-13, 2.1361E-06, 0.62096, 2.1361E-06, 8.2E-13, 
DataValue, 1.35, 1, 6.0000000000000009E-14, 2.1978000000000004E-06, 0.62503999999999993, 2.1978000000000004E-06, 6.0000000000000009E-14, 
DataValue, 1.3800000000000001, 1, -1.1000000000000001E-13, 2.2689000000000004E-06, 0.63191999999999993, 2.2689000000000004E-06, 1.1000000000000001E-13, 
DataValue, 1.41, 1, 8.1000000000000008E-13, 2.3415000000000004E-06, 0.63476, 2.3415000000000004E-06, 8.1000000000000008E-13, 
DataValue, 1.44, 1, 4.5000000000000005E-13, 2.3868E-06, 0.64267999999999992, 2.3868E-06, 4.5000000000000005E-13, 
DataValue, 1.47, 1, 3.7000000000000004E-13, 2.4680000000000003E-06, 0.64872, 2.4680000000000003E-06, 3.7000000000000004E-13, 
DataValue, 1.5, 1, 8.5000000000000011E-13, 2.5379000000000003E-06, 0.65523999999999993, 2.5379000000000003E-06, 8.5000000000000011E-13, 
DataValue, 1.53, 1, 4E-13, 2.6021000000000005E-06, 0.66304, 2.6021000000000005E-06, 4E-13, 
DataValue, 1.56, 1, 7E-13, 2.6664000000000004E-06, 0.67076, 2.6664000000000004E-06, 7E-13, 
DataValue, 1.59, 1, 5.3000000000000006E-13, 2.7468E-06, 0.67812, 2.7468E-06, 5.3000000000000006E-13, 
DataValue, 1.62, 1, 1.1000000000000001E-13, 2.8046000000000002E-06, 0.68643999999999994, 2.8046000000000002E-06, 1.1000000000000001E-13, 
DataValue, 1.6500000000000001, 1, 5.4E-13, 2.8920000000000004E-06, 0.69375999999999993, 2.8920000000000004E-06, 5.4E-13, 
DataValue, 1.68, 1, -5.1E-13, 2.9663000000000003E-06, 0.70216, 2.9663000000000003E-06, 5.1E-13, 
DataValue, 1.71, 1, -5E-14, 3.0475000000000005E-06, 0.70763999999999994, 3.0475000000000005E-06, 5E-14, 
DataValue, 1.74, 1, 6.2000000000000008E-13, 3.1813000000000004E-06, 0.7152, 3.1813000000000004E-06, 6.2000000000000008E-13, 
DataValue, 1.77, 1, -7E-14, 3.2249000000000002E-06, 0.72376, 3.2249000000000002E-06, 7E-14, 
DataValue, 1.8, 1, -2.5E-13, 3.3063000000000004E-06, 0.73092, 3.3063000000000004E-06, 2.5E-13, 
DataValue, 1.83, 1, 2.8E-13, 3.3782000000000005E-06, 0.73844, 3.3782000000000005E-06, 2.8E-13, 
DataValue, 1.86, 1, 3.3E-13, 3.4837E-06, 0.74512, 3.4837E-06, 3.3E-13, 
DataValue, 1.8900000000000001, 1, 4.3000000000000004E-13, 3.5547000000000005E-06, 0.75272, 3.5547000000000005E-06, 4.3000000000000004E-13, 
DataValue, 1.92, 1, 8.2E-13, 3.6472000000000004E-06, 0.75984, 3.6472000000000004E-06, 8.2E-13, 
DataValue, 1.95, 1, 7.7000000000000005E-13, 3.7490000000000004E-06, 0.76664, 3.7490000000000004E-06, 7.7000000000000005E-13, 
DataValue, 1.98, 1, 2.9000000000000003E-13, 3.8603E-06, 0.7716, 3.8603E-06, 2.9000000000000003E-13, 
DataValue, 2.0100000000000002, 1, -1.0000000000000002E-14, 3.9407E-06, 0.77792, 3.9407E-06, 1.0000000000000002E-14, 
DataValue, 2.04, 1, 2.0000000000000003E-14, 4.0306E-06, 0.78352, 4.0306E-06, 2.0000000000000003E-14, 
DataValue, 2.07, 1, 2.4000000000000004E-13, 4.1309000000000005E-06, 0.78811999999999993, 4.1309000000000005E-06, 2.4000000000000004E-13, 
DataValue, 2.1, 1, 5E-14, 4.2075000000000008E-06, 0.79424, 4.2075000000000008E-06, 5E-14, 
DataValue, 2.13, 1, 7E-13, 4.3197E-06, 0.79772, 4.3197E-06, 7E-13, 
DataValue, 2.16, 1, 5.5000000000000008E-13, 4.4140000000000004E-06, 0.80272, 4.4140000000000004E-06, 5.5000000000000008E-13, 
DataValue, 2.19, 1, 3.1000000000000004E-13, 4.5272000000000005E-06, 0.80643999999999993, 4.5272000000000005E-06, 3.1000000000000004E-13, 
DataValue, 2.22, 1, 5.2E-13, 4.6255000000000009E-06, 0.81104, 4.6255000000000009E-06, 5.2E-13, 
DataValue, 2.25, 1, 6.5000000000000006E-13, 4.7021E-06, 0.81556, 4.7021E-06, 6.5000000000000006E-13, 
DataValue, 2.2800000000000002, 1, -1.0000000000000002E-14, 4.8153E-06, 0.81863999999999992, 4.8153E-06, 1.0000000000000002E-14, 
DataValue, 2.31, 1, 1.9000000000000002E-13, 4.8853000000000005E-06, 0.82212, 4.8853000000000005E-06, 1.9000000000000002E-13, 
DataValue, 2.34, 1, 8.2E-13, 4.9691E-06, 0.82595999999999992, 4.9691E-06, 8.2E-13, 
DataValue, 2.37, 1, -4.0000000000000006E-14, 5.0650000000000006E-06, 0.82848, 5.0650000000000006E-06, 4.0000000000000006E-14, 
DataValue, 2.4, 1, 5E-13, 5.1775000000000008E-06, 0.83019999999999994, 5.1775000000000008E-06, 5E-13, 
DataValue, 2.43, 1, 6.1E-13, 5.2777E-06, 0.83268, 5.2777E-06, 6.1E-13, 
DataValue, 2.46, 1, 8.6000000000000007E-13, 5.3549E-06, 0.83476, 5.3549E-06, 8.6000000000000007E-13, 
DataValue, 2.49, 1, 8.6000000000000007E-13, 5.4748000000000005E-06, 0.83671999999999991, 5.4748000000000005E-06, 8.6000000000000007E-13, 
DataValue, 2.52, 1, 6.0000000000000007E-13, 5.5531E-06, 0.83804, 5.5531E-06, 6.0000000000000007E-13, 
DataValue, 2.5500000000000003, 1, 5.4E-13, 5.6618000000000006E-06, 0.84039999999999992, 5.6618000000000006E-06, 5.4E-13, 
DataValue, 2.58, 1, 3.7000000000000004E-13, 5.7832000000000008E-06, 0.8416, 5.7832000000000008E-06, 3.7000000000000004E-13, 
DataValue, 2.61, 1, 5.7E-13, 5.824600000000001E-06, 0.84315999999999991, 5.824600000000001E-06, 5.7E-13, 
DataValue, 2.64, 1, -3.0000000000000005E-14, 5.9142000000000009E-06, 0.84468, 5.9142000000000009E-06, 3.0000000000000005E-14, 
DataValue, 2.67, 1, 6.2000000000000008E-13, 6.0517000000000009E-06, 0.845, 6.0517000000000009E-06, 6.2000000000000008E-13, 
DataValue, 2.7, 1, 2E-13, 6.134800000000001E-06, 0.84639999999999993, 6.134800000000001E-06, 2E-13, 
DataValue, 2.73, 1, 2.4000000000000004E-13, 6.1865000000000008E-06, 0.84764, 6.1865000000000008E-06, 2.4000000000000004E-13, 
DataValue, 2.7600000000000002, 1, 2.9000000000000003E-13, 6.295500000000001E-06, 0.84924, 6.295500000000001E-06, 2.9000000000000003E-13, 
DataValue, 2.79, 1, 2.1000000000000001E-13, 6.3957000000000004E-06, 0.84927999999999992, 6.3957000000000004E-06, 2.1000000000000001E-13, 
DataValue, 2.82, 1, 2.3000000000000003E-13, 6.4576000000000006E-06, 0.85024, 6.4576000000000006E-06, 2.3000000000000003E-13, 
DataValue, 2.85, 1, 4.5000000000000005E-13, 6.5456000000000005E-06, 0.85183999999999993, 6.5456000000000005E-06, 4.5000000000000005E-13, 
DataValue, 2.88, 1, 6.400000000000001E-13, 6.6616000000000007E-06, 0.85212, 6.6616000000000007E-06, 6.400000000000001E-13, 
DataValue, 2.91, 1, 7.7000000000000005E-13, 6.7342000000000007E-06, 0.85339999999999994, 6.7342000000000007E-06, 7.7000000000000005E-13, 
DataValue, 2.94, 1, 6.0000000000000009E-14, 6.8231000000000008E-06, 0.85327999999999993, 6.8231000000000008E-06, 6.0000000000000009E-14, 
DataValue, 2.97, 1, 2.8E-13, 6.8777000000000011E-06, 0.85483999999999993, 6.8777000000000011E-06, 2.8E-13, 
DataValue, 3, 1, 9.3E-13, 6.9999000000000005E-06, 0.85452, 6.9999000000000005E-06, 9.3E-13, 
DataValue, 3, 1, 2.0000000000000003E-14, 6.977E-06, 0.85532, 6.977E-06, 2.0000000000000003E-14, 
DataValue, 2.97, 1, 7.4000000000000008E-13, 6.8459000000000008E-06, 0.85439999999999994, 6.8459000000000008E-06, 7.4000000000000008E-13, 
DataValue, 2.94, 1, -1.0000000000000002E-14, 6.7182E-06, 0.85464, 6.7182E-06, 1.0000000000000002E-14, 
DataValue, 2.91, 1, 1.6000000000000003E-13, 6.5695E-06, 0.85415999999999992, 6.5695E-06, 1.6000000000000003E-13, 
DataValue, 2.88, 1, 5.9E-13, 6.4666000000000009E-06, 0.85259999999999991, 6.4666000000000009E-06, 5.9E-13, 
DataValue, 2.85, 1, 1.8000000000000002E-13, 6.3116000000000007E-06, 0.85212, 6.3116000000000007E-06, 1.8000000000000002E-13, 
DataValue, 2.82, 1, -1.9000000000000002E-13, 6.2302000000000009E-06, 0.85159999999999991, 6.2302000000000009E-06, 1.9000000000000002E-13, 
DataValue, 2.79, 1, 3.9000000000000005E-13, 6.093500000000001E-06, 0.85115999999999992, 6.093500000000001E-06, 3.9000000000000005E-13, 
DataValue, 2.7600000000000002, 1, 3.0000000000000003E-13, 6.0067000000000004E-06, 0.84927999999999992, 6.0067000000000004E-06, 3.0000000000000003E-13, 
DataValue, 2.73, 1, -5.5000000000000008E-13, 5.8817000000000008E-06, 0.8482, 5.8817000000000008E-06, 5.5000000000000008E-13, 
DataValue, 2.7, 1, 4.8000000000000008E-13, 5.715300000000001E-06, 0.84815999999999991, 5.715300000000001E-06, 4.8000000000000008E-13, 
DataValue, 2.67, 1, -1.1000000000000001E-13, 5.6343E-06, 0.84648, 5.6343E-06, 1.1000000000000001E-13, 
DataValue, 2.64, 1, -4E-13, 5.5120000000000008E-06, 0.845, 5.5120000000000008E-06, 4E-13, 
DataValue, 2.61, 1, 8.0000000000000013E-14, 5.4059E-06, 0.84371999999999991, 5.4059E-06, 8.0000000000000013E-14, 
DataValue, 2.58, 1, 3.1000000000000004E-13, 5.3043E-06, 0.84115999999999991, 5.3043E-06, 3.1000000000000004E-13, 
DataValue, 2.5500000000000003, 1, 9.0000000000000008E-14, 5.2090000000000004E-06, 0.8388, 5.2090000000000004E-06, 9.0000000000000008E-14, 
