
SetupTitle, inv-vovg
PrimitiveTest, I/V Sweep
TestParameter, Context.MainFrame, B1500A
TestParameter, Channel.UnitType, SMU, SMU, SMU, SMU
TestParameter, Channel.Unit, SMU4:HR, SMU1:HP, SMU2:HP, SMU3:HR
TestParameter, Channel.IName, Ibg, Idd, Io1, Io2
TestParameter, Channel.VName, Vbg, Vdd, Vo1, VSS
TestParameter, Channel.Mode, V, V, I, COMMON
TestParameter, Channel.Func, VAR1, VAR2, CONST, CONST
TestParameter, Channel.Index, 
TestParameter, Channel.Time, 
TestParameter, Measurement.Port.Unit, SMU4:HR, SMU1:HP, SMU2:HP, SMU3:HR
TestParameter, Measurement.Port.SeriesResistor, NONE, NONE, NONE, NONE
TestParameter, Measurement.Port.Filter, ON, ON, ON, ON
TestParameter, Measurement.Port.OutputVoltageComparison, 0, 0, 0, 0
TestParameter, Measurement.Primary.Locus, Double
TestParameter, Measurement.Primary.Scale, LINEAR
TestParameter, Measurement.Primary.Start, 0
TestParameter, Measurement.Primary.Stop, 3
TestParameter, Measurement.Primary.Step, 0.03
TestParameter, Measurement.Primary.Compliance, 1E-08
TestParameter, Measurement.Primary.PowerCompliance, 0
TestParameter, Measurement.Aborting.Condition, CONTINUE AT ANY
TestParameter, Measurement.PostOutput.Value, START
TestParameter, Measurement.PostOutput.Retention, OFF
TestParameter, Measurement.Secondary.Start, 1
TestParameter, Measurement.Secondary.Count, 3
TestParameter, Measurement.Secondary.Step, 1
TestParameter, Measurement.Secondary.Compliance, 0.001
TestParameter, Measurement.Secondary.PowerCompliance, 0
TestParameter, Measurement.Bias.Source, 0, 1, 1.0000000000000001E-11, 0
TestParameter, Measurement.Bias.Compliance, 1E-08, 0.001, 5, 0.1
TestParameter, Measurement.Monitor.Unit, SMU4:HR, SMU1:HP, SMU2:HP, SMU3:HR
TestParameter, Measurement.Monitor.Adc, HR ADC, HR ADC, HR ADC, HR ADC
TestParameter, Measurement.Monitor.Measurement, Compliance Side, Compliance Side, Compliance Side, Compliance Side
TestParameter, Measurement.Monitor.RangingMode, LIMITED, LIMITED, LIMITED, LIMITED
TestParameter, Measurement.Monitor.RangeBoundary, 1nA, 1nA, 2V, 1nA
TestParameter, Measurement.Monitor.RangeRating, BY FULL RANGE, BY FULL RANGE, BY FULL RANGE
TestParameter, Measurement.Monitor.RangeRatingCoeff, 50, 50, 50
TestParameter, Measurement.Timing.Hold, 4
TestParameter, Measurement.Timing.Delay, 0
TestParameter, Measurement.Adc.HighSpeed.Mode, AUTO
TestParameter, Measurement.Adc.HighSpeed.Coeff, 1
TestParameter, Measurement.Adc.HighResolution.AutoZero, OFF
TestParameter, Measurement.Adc.HighResolution.Mode, AUTO
TestParameter, Measurement.Adc.HighResolution.Coeff, 6
TestParameter, Measurement.WaitTime.Source.Coeff, 1
TestParameter, Measurement.WaitTime.Source.Offset, 0
TestParameter, Measurement.WaitTime.Monitor.Coeff, 1
TestParameter, Measurement.WaitTime.Monitor.Offset, 0
TestParameter, Function.User.Name, absIdd, absIbg
TestParameter, Function.User.Unit, A, A
TestParameter, Function.User.Definition, abs(Idd), abs(Ibg)
TestParameter, Output.Graph.Enabled, true
TestParameter, Output.Graph.AutoScaling, false
TestParameter, Output.Graph.XAxis.Data, Vbg
TestParameter, Output.Graph.XAxis.Scale, Linear
TestParameter, Output.Graph.XAxis.Left, 0
TestParameter, Output.Graph.XAxis.Right, 3
TestParameter, Output.Graph.XAxis.RunTimeAutoScale, true
TestParameter, Output.Graph.YAxis.Data, absIdd, absIbg, Vo1
TestParameter, Output.Graph.YAxis.Scale, Linear, Linear, Linear
TestParameter, Output.Graph.YAxis.Bottom, 0, 0, -5
TestParameter, Output.Graph.YAxis.Top, 1, 1, 5
TestParameter, Output.Graph.YAxis.Group, , , 
TestParameter, Output.Graph.YAxis.RunTimeAutoScale, true, true, true
TestParameter, Output.List.Data, Vbg, Vo2, Vo1, Vbg, Vdd, Ibg, Idd, absIdd, absIbg
TestParameter, AutoAnalysis.Interpolation, false
TestParameter, AutoAnalysis.Var2StepCount, 1
TestParameter, AutoAnalysis.Var2StepScript, 
TestParameter, AutoAnalysis.Line1.Enabled, false
TestParameter, AutoAnalysis.Line1.Type, 1
TestParameter, AutoAnalysis.Line1.Fix, True
TestParameter, AutoAnalysis.Line1.YAxis, 0
TestParameter, AutoAnalysis.Line1.Point1.Type, 0
TestParameter, AutoAnalysis.Line1.Point1.XY.X, 
TestParameter, AutoAnalysis.Line1.Point1.XY.Y, 
TestParameter, AutoAnalysis.Line1.Point1.Data.Var, 
TestParameter, AutoAnalysis.Line1.Point1.Data.Condition, 
TestParameter, AutoAnalysis.Line1.Point1.Data.Start, false
TestParameter, AutoAnalysis.Line1.Point1.Data.StartVar, 
TestParameter, AutoAnalysis.Line1.Point1.Data.StartCondition, 
TestParameter, AutoAnalysis.Line1.Point2.Type, 0
TestParameter, AutoAnalysis.Line1.Point2.XY.X, 
TestParameter, AutoAnalysis.Line1.Point2.XY.Y, 
TestParameter, AutoAnalysis.Line1.Point2.Data.Var, 
TestParameter, AutoAnalysis.Line1.Point2.Data.Condition, 
TestParameter, AutoAnalysis.Line1.Point2.Data.Start, false
TestParameter, AutoAnalysis.Line1.Point2.Data.StartVar, 
TestParameter, AutoAnalysis.Line1.Point2.Data.StartCondition, 
TestParameter, AutoAnalysis.Line1.GradientExpr, 0
TestParameter, AutoAnalysis.Line2.Enabled, false
TestParameter, AutoAnalysis.Line2.Type, 1
TestParameter, AutoAnalysis.Line2.Fix, True
TestParameter, AutoAnalysis.Line2.YAxis, 0
TestParameter, AutoAnalysis.Line2.Point1.Type, 0
TestParameter, AutoAnalysis.Line2.Point1.XY.X, 
TestParameter, AutoAnalysis.Line2.Point1.XY.Y, 
TestParameter, AutoAnalysis.Line2.Point1.Data.Var, 
TestParameter, AutoAnalysis.Line2.Point1.Data.Condition, 
TestParameter, AutoAnalysis.Line2.Point1.Data.Start, false
TestParameter, AutoAnalysis.Line2.Point1.Data.StartVar, 
TestParameter, AutoAnalysis.Line2.Point1.Data.StartCondition, 
TestParameter, AutoAnalysis.Line2.Point2.Type, 0
TestParameter, AutoAnalysis.Line2.Point2.XY.X, 
TestParameter, AutoAnalysis.Line2.Point2.XY.Y, 
TestParameter, AutoAnalysis.Line2.Point2.Data.Var, 
TestParameter, AutoAnalysis.Line2.Point2.Data.Condition, 
TestParameter, AutoAnalysis.Line2.Point2.Data.Start, false
TestParameter, AutoAnalysis.Line2.Point2.Data.StartVar, 
TestParameter, AutoAnalysis.Line2.Point2.Data.StartCondition, 
TestParameter, AutoAnalysis.Line2.GradientExpr, 0
TestParameter, AutoAnalysis.Marker.Enabled, false
TestParameter, AutoAnalysis.Marker.Data.Var, 
TestParameter, AutoAnalysis.Marker.Data.Condition, 
TestParameter, AutoAnalysis.Marker.Data.Start, false
TestParameter, AutoAnalysis.Marker.Data.StartVar, 
TestParameter, AutoAnalysis.Marker.Data.StartCondition, 
MetaData, TestRecord.EntryPoint, true
MetaData, TestRecord.RecordTime, 01/11/2023 00:40:24
MetaData, TestRecord.TestTarget, 
MetaData, TestRecord.IterationIndex, 5
MetaData, TestRecord.Preservation, true
MetaData, TestRecord.Flag, 
MetaData, TestRecord.Remarks, 
MetaData, TestRecord.LinkKey, b1d4252a-edc2-4e3b-be00-72331a64aef3
MetaData, TestRecord.Parameters, 
Dimension1, 202, 202, 202, 202, 202, 202, 202, 202
Dimension2, 3, 3, 3, 3, 3, 3, 3, 3
DataName, Vbg, Vdd, Ibg, Idd, Vo1, absIdd, absIbg, Vo2
DataValue, 0, 1, 3.7000000000000004E-13, 1.1392E-06, 0.84736, 1.1392E-06, 3.7000000000000004E-13, 
DataValue, 0.03, 1, 5.4E-13, 1.1321000000000001E-06, 0.84871999999999992, 1.1321000000000001E-06, 5.4E-13, 
DataValue, 0.06, 1, 4.4000000000000004E-13, 1.1373E-06, 0.84795999999999994, 1.1373E-06, 4.4000000000000004E-13, 
DataValue, 0.09, 1, 2.1000000000000001E-13, 1.1461000000000001E-06, 0.84483999999999992, 1.1461000000000001E-06, 2.1000000000000001E-13, 
DataValue, 0.12, 1, 3.6000000000000003E-13, 1.1463000000000002E-06, 0.84315999999999991, 1.1463000000000002E-06, 3.6000000000000003E-13, 
DataValue, 0.15, 1, 1.4E-13, 1.1350000000000001E-06, 0.84471999999999992, 1.1350000000000001E-06, 1.4E-13, 
DataValue, 0.18, 1, -2E-13, 1.1422E-06, 0.84364, 1.1422E-06, 2E-13, 
DataValue, 0.21, 1, 7.3E-13, 1.1583000000000002E-06, 0.83816, 1.1583000000000002E-06, 7.3E-13, 
DataValue, 0.24, 1, 4.3000000000000004E-13, 1.1699E-06, 0.83716, 1.1699E-06, 4.3000000000000004E-13, 
DataValue, 0.27, 1, -2.7E-13, 1.1838000000000002E-06, 0.83424, 1.1838000000000002E-06, 2.7E-13, 
DataValue, 0.3, 1, 1.3E-13, 1.1818E-06, 0.83204, 1.1818E-06, 1.3E-13, 
DataValue, 0.33, 1, 2E-13, 1.1775000000000002E-06, 0.82924, 1.1775000000000002E-06, 2E-13, 
DataValue, 0.36, 1, 1.8000000000000002E-13, 1.1841E-06, 0.82707999999999993, 1.1841E-06, 1.8000000000000002E-13, 
DataValue, 0.39, 1, 6.5000000000000006E-13, 1.1995000000000001E-06, 0.81851999999999991, 1.1995000000000001E-06, 6.5000000000000006E-13, 
DataValue, 0.42, 1, 8.8000000000000009E-13, 1.2207E-06, 0.81156, 1.2207E-06, 8.8000000000000009E-13, 
DataValue, 0.45, 1, 1.0000000000000002E-14, 1.2255000000000002E-06, 0.80331999999999992, 1.2255000000000002E-06, 1.0000000000000002E-14, 
DataValue, 0.48, 1, 3.4E-13, 1.2414E-06, 0.79231999999999991, 1.2414E-06, 3.4E-13, 
DataValue, 0.51, 1, 3.0000000000000005E-14, 1.2390000000000001E-06, 0.78055999999999992, 1.2390000000000001E-06, 3.0000000000000005E-14, 
DataValue, 0.54, 1, 2.4300000000000003E-12, 1.2573000000000002E-06, 0.75508, 1.2573000000000002E-06, 2.4300000000000003E-12, 
DataValue, 0.57000000000000006, 1, 3.4E-13, 1.2588000000000001E-06, 0.73696, 1.2588000000000001E-06, 3.4E-13, 
DataValue, 0.6, 1, -2.5E-13, 1.2478000000000002E-06, 0.71683999999999992, 1.2478000000000002E-06, 2.5E-13, 
DataValue, 0.63, 1, 1.5300000000000001E-12, 1.2482000000000002E-06, 0.6914, 1.2482000000000002E-06, 1.5300000000000001E-12, 
DataValue, 0.66, 1, 1.02E-12, 1.2489000000000002E-06, 0.68212, 1.2489000000000002E-06, 1.02E-12, 
DataValue, 0.69000000000000006, 1, 5.9E-13, 1.2425000000000002E-06, 0.66399999999999992, 1.2425000000000002E-06, 5.9E-13, 
DataValue, 0.72, 1, -5.4E-13, 1.2466E-06, 0.65535999999999994, 1.2466E-06, 5.4E-13, 
DataValue, 0.75, 1, 4.2000000000000003E-13, 1.2555E-06, 0.64572, 1.2555E-06, 4.2000000000000003E-13, 
DataValue, 0.78, 1, -2.2000000000000002E-13, 1.2694E-06, 0.63888, 1.2694E-06, 2.2000000000000002E-13, 
DataValue, 0.81, 1, 9.1000000000000016E-13, 1.2833E-06, 0.62908, 1.2833E-06, 9.1000000000000016E-13, 
DataValue, 0.84, 1, -7E-14, 1.3105000000000002E-06, 0.621, 1.3105000000000002E-06, 7E-14, 
DataValue, 0.87, 1, -2.9000000000000003E-13, 1.3272000000000002E-06, 0.61896, 1.3272000000000002E-06, 2.9000000000000003E-13, 
DataValue, 0.9, 1, 5.9E-13, 1.334E-06, 0.61836, 1.334E-06, 5.9E-13, 
DataValue, 0.93, 1, -5.5000000000000008E-13, 1.3657000000000001E-06, 0.61548, 1.3657000000000001E-06, 5.5000000000000008E-13, 
DataValue, 0.96, 1, 7E-14, 1.3861000000000002E-06, 0.61396, 1.3861000000000002E-06, 7E-14, 
DataValue, 0.99, 1, 6.400000000000001E-13, 1.4114000000000002E-06, 0.6172, 1.4114000000000002E-06, 6.400000000000001E-13, 
DataValue, 1.02, 1, 3.4E-13, 1.4365000000000001E-06, 0.61588, 1.4365000000000001E-06, 3.4E-13, 
DataValue, 1.05, 1, 2.4000000000000004E-13, 1.4681000000000002E-06, 0.61512, 1.4681000000000002E-06, 2.4000000000000004E-13, 
DataValue, 1.08, 1, 1.1900000000000002E-12, 1.5082000000000002E-06, 0.61827999999999994, 1.5082000000000002E-06, 1.1900000000000002E-12, 
DataValue, 1.11, 1, 5E-14, 1.5446000000000002E-06, 0.6188, 1.5446000000000002E-06, 5E-14, 
DataValue, 1.1400000000000001, 1, -4.4000000000000004E-13, 1.5925000000000002E-06, 0.62388, 1.5925000000000002E-06, 4.4000000000000004E-13, 
DataValue, 1.17, 1, 4.2000000000000003E-13, 1.6230000000000002E-06, 0.62515999999999994, 1.6230000000000002E-06, 4.2000000000000003E-13, 
DataValue, 1.2, 1, -1.8000000000000002E-13, 1.6649000000000001E-06, 0.62991999999999992, 1.6649000000000001E-06, 1.8000000000000002E-13, 
DataValue, 1.23, 1, 2.6E-13, 1.7137000000000002E-06, 0.63496, 1.7137000000000002E-06, 2.6E-13, 
DataValue, 1.26, 1, 3.4E-13, 1.7621000000000003E-06, 0.63788, 1.7621000000000003E-06, 3.4E-13, 
DataValue, 1.29, 1, 4.9E-13, 1.7960000000000003E-06, 0.64472, 1.7960000000000003E-06, 4.9E-13, 
DataValue, 1.32, 1, 4.9E-13, 1.8481000000000001E-06, 0.6494, 1.8481000000000001E-06, 4.9E-13, 
DataValue, 1.35, 1, 5.2E-13, 1.8929000000000001E-06, 0.65467999999999993, 1.8929000000000001E-06, 5.2E-13, 
DataValue, 1.3800000000000001, 1, 1.0500000000000002E-12, 1.9479E-06, 0.66028, 1.9479E-06, 1.0500000000000002E-12, 
DataValue, 1.41, 1, 4.9E-13, 1.9956E-06, 0.66732, 1.9956E-06, 4.9E-13, 
DataValue, 1.44, 1, 9.0000000000000008E-14, 2.0535000000000003E-06, 0.67252, 2.0535000000000003E-06, 9.0000000000000008E-14, 
DataValue, 1.47, 1, 4.8000000000000008E-13, 2.104E-06, 0.67916, 2.104E-06, 4.8000000000000008E-13, 
DataValue, 1.5, 1, 4.0000000000000006E-14, 2.1546E-06, 0.68624, 2.1546E-06, 4.0000000000000006E-14, 
DataValue, 1.53, 1, -2.2000000000000002E-13, 2.2038000000000004E-06, 0.6944, 2.2038000000000004E-06, 2.2000000000000002E-13, 
DataValue, 1.56, 1, 1.9000000000000002E-13, 2.2718000000000004E-06, 0.69795999999999991, 2.2718000000000004E-06, 1.9000000000000002E-13, 
DataValue, 1.59, 1, 8.1000000000000008E-13, 2.3333E-06, 0.70595999999999992, 2.3333E-06, 8.1000000000000008E-13, 
DataValue, 1.62, 1, 8E-13, 2.4005E-06, 0.71227999999999991, 2.4005E-06, 8E-13, 
DataValue, 1.6500000000000001, 1, 1.03E-12, 2.4575E-06, 0.71971999999999992, 2.4575E-06, 1.03E-12, 
DataValue, 1.68, 1, 6.1E-13, 2.5125E-06, 0.72583999999999993, 2.5125E-06, 6.1E-13, 
DataValue, 1.71, 1, -5E-14, 2.5786E-06, 0.73468, 2.5786E-06, 5E-14, 
DataValue, 1.74, 1, 8.0000000000000013E-14, 2.6486000000000004E-06, 0.74108, 2.6486000000000004E-06, 8.0000000000000013E-14, 
DataValue, 1.77, 1, 6.3E-13, 2.7088000000000002E-06, 0.74847999999999992, 2.7088000000000002E-06, 6.3E-13, 
DataValue, 1.8, 1, 2.1000000000000001E-13, 2.7884000000000003E-06, 0.75359999999999994, 2.7884000000000003E-06, 2.1000000000000001E-13, 
DataValue, 1.83, 1, -6.0000000000000009E-14, 2.8485000000000003E-06, 0.76252, 2.8485000000000003E-06, 6.0000000000000009E-14, 
DataValue, 1.86, 1, 1.0000000000000002E-14, 2.9108E-06, 0.76911999999999991, 2.9108E-06, 1.0000000000000002E-14, 
DataValue, 1.8900000000000001, 1, 2.7E-13, 2.9665000000000003E-06, 0.77564, 2.9665000000000003E-06, 2.7E-13, 
DataValue, 1.92, 1, 3.4E-13, 3.0579000000000004E-06, 0.7822, 3.0579000000000004E-06, 3.4E-13, 
DataValue, 1.95, 1, 4.8000000000000008E-13, 3.1301000000000003E-06, 0.78748, 3.1301000000000003E-06, 4.8000000000000008E-13, 
DataValue, 1.98, 1, 5.5000000000000008E-13, 3.1992000000000002E-06, 0.79572, 3.1992000000000002E-06, 5.5000000000000008E-13, 
DataValue, 2.0100000000000002, 1, 5.3000000000000006E-13, 3.2532000000000005E-06, 0.80168, 3.2532000000000005E-06, 5.3000000000000006E-13, 
DataValue, 2.04, 1, 6.2000000000000008E-13, 3.3292000000000002E-06, 0.80631999999999993, 3.3292000000000002E-06, 6.2000000000000008E-13, 
DataValue, 2.07, 1, 4.5000000000000005E-13, 3.3912000000000002E-06, 0.81231999999999993, 3.3912000000000002E-06, 4.5000000000000005E-13, 
DataValue, 2.1, 1, 3.4E-13, 3.458E-06, 0.81816, 3.458E-06, 3.4E-13, 
DataValue, 2.13, 1, -2.5E-13, 3.5276000000000003E-06, 0.82292, 3.5276000000000003E-06, 2.5E-13, 
DataValue, 2.16, 1, 1.7E-13, 3.6073E-06, 0.82795999999999992, 3.6073E-06, 1.7E-13, 
DataValue, 2.19, 1, 1.7E-13, 3.6757000000000002E-06, 0.83304, 3.6757000000000002E-06, 1.7E-13, 
DataValue, 2.22, 1, 5.1E-13, 3.7300000000000003E-06, 0.83683999999999992, 3.7300000000000003E-06, 5.1E-13, 
DataValue, 2.25, 1, 3.5E-13, 3.7973000000000005E-06, 0.84115999999999991, 3.7973000000000005E-06, 3.5E-13, 
DataValue, 2.2800000000000002, 1, 6.2000000000000008E-13, 3.8853000000000007E-06, 0.84427999999999992, 3.8853000000000007E-06, 6.2000000000000008E-13, 
DataValue, 2.31, 1, 2.5E-13, 3.9616E-06, 0.84783999999999993, 3.9616E-06, 2.5E-13, 
DataValue, 2.34, 1, 3.6000000000000003E-13, 4.0149E-06, 0.85095999999999994, 4.0149E-06, 3.6000000000000003E-13, 
DataValue, 2.37, 1, 3.4E-13, 4.0956E-06, 0.85336, 4.0956E-06, 3.4E-13, 
DataValue, 2.4, 1, 4.8000000000000008E-13, 4.1548000000000004E-06, 0.85644, 4.1548000000000004E-06, 4.8000000000000008E-13, 
DataValue, 2.43, 1, -2.1000000000000001E-13, 4.2068E-06, 0.85947999999999991, 4.2068E-06, 2.1000000000000001E-13, 
DataValue, 2.46, 1, 4.3000000000000004E-13, 4.2932000000000007E-06, 0.86147999999999991, 4.2932000000000007E-06, 4.3000000000000004E-13, 
DataValue, 2.49, 1, 8.0000000000000013E-14, 4.3916000000000004E-06, 0.86268, 4.3916000000000004E-06, 8.0000000000000013E-14, 
DataValue, 2.52, 1, 7E-14, 4.4470000000000008E-06, 0.86471999999999993, 4.4470000000000008E-06, 7E-14, 
DataValue, 2.5500000000000003, 1, 3.3E-13, 4.5001E-06, 0.8674, 4.5001E-06, 3.3E-13, 
DataValue, 2.58, 1, 3.7000000000000004E-13, 4.5771000000000006E-06, 0.86868, 4.5771000000000006E-06, 3.7000000000000004E-13, 
DataValue, 2.61, 1, 2.4000000000000004E-13, 4.6183E-06, 0.87056, 4.6183E-06, 2.4000000000000004E-13, 
DataValue, 2.64, 1, 8.1000000000000008E-13, 4.7018000000000005E-06, 0.87215999999999994, 4.7018000000000005E-06, 8.1000000000000008E-13, 
DataValue, 2.67, 1, 4E-13, 4.7784000000000007E-06, 0.87288, 4.7784000000000007E-06, 4E-13, 
DataValue, 2.7, 1, 3.3E-13, 4.8394000000000006E-06, 0.87447999999999992, 4.8394000000000006E-06, 3.3E-13, 
DataValue, 2.73, 1, 1.7E-13, 4.911E-06, 0.87484, 4.911E-06, 1.7E-13, 
DataValue, 2.7600000000000002, 1, 6.7000000000000007E-13, 4.976E-06, 0.87656, 4.976E-06, 6.7000000000000007E-13, 
DataValue, 2.79, 1, 3.5E-13, 5.0206000000000007E-06, 0.87772, 5.0206000000000007E-06, 3.5E-13, 
DataValue, 2.82, 1, -4.6000000000000006E-13, 5.0645E-06, 0.87856, 5.0645E-06, 4.6000000000000006E-13, 
DataValue, 2.85, 1, 4.9E-13, 5.1523000000000006E-06, 0.87956, 5.1523000000000006E-06, 4.9E-13, 
DataValue, 2.88, 1, 6.6E-13, 5.2107000000000008E-06, 0.88052, 5.2107000000000008E-06, 6.6E-13, 
DataValue, 2.91, 1, 1.9000000000000002E-13, 5.2810000000000008E-06, 0.881, 5.2810000000000008E-06, 1.9000000000000002E-13, 
DataValue, 2.94, 1, 5.2E-13, 5.372E-06, 0.88135999999999992, 5.372E-06, 5.2E-13, 
DataValue, 2.97, 1, 1.2900000000000002E-12, 5.4083E-06, 0.88232, 5.4083E-06, 1.2900000000000002E-12, 
DataValue, 3, 1, -1.8000000000000002E-13, 5.4687000000000007E-06, 0.88296, 5.4687000000000007E-06, 1.8000000000000002E-13, 
DataValue, 3, 1, 1.0500000000000002E-12, 5.4599000000000009E-06, 0.88296, 5.4599000000000009E-06, 1.0500000000000002E-12, 
DataValue, 2.97, 1, 4.0000000000000006E-14, 5.3832E-06, 0.88196, 5.3832E-06, 4.0000000000000006E-14, 
DataValue, 2.94, 1, 1.7E-13, 5.2783000000000008E-06, 0.88191999999999993, 5.2783000000000008E-06, 1.7E-13, 
DataValue, 2.91, 1, 5E-13, 5.2031E-06, 0.8804, 5.2031E-06, 5E-13, 
DataValue, 2.88, 1, -5E-14, 5.1185E-06, 0.87952, 5.1185E-06, 5E-14, 
DataValue, 2.85, 1, -3.8000000000000005E-13, 5.0337000000000006E-06, 0.87859999999999994, 5.0337000000000006E-06, 3.8000000000000005E-13, 
DataValue, 2.82, 1, 2.8E-13, 4.9627000000000008E-06, 0.87732, 4.9627000000000008E-06, 2.8E-13, 
DataValue, 2.79, 1, 2E-13, 4.8921E-06, 0.87568, 4.8921E-06, 2E-13, 
DataValue, 2.7600000000000002, 1, 2.0000000000000003E-14, 4.7983E-06, 0.87491999999999992, 4.7983E-06, 2.0000000000000003E-14, 
DataValue, 2.73, 1, 3.5E-13, 4.7141E-06, 0.874, 4.7141E-06, 3.5E-13, 
DataValue, 2.7, 1, 5.1E-13, 4.6339000000000006E-06, 0.87252, 4.6339000000000006E-06, 5.1E-13, 
DataValue, 2.67, 1, 2.2000000000000002E-13, 4.5498E-06, 0.8702, 4.5498E-06, 2.2000000000000002E-13, 
DataValue, 2.64, 1, -2.1000000000000001E-13, 4.4666000000000006E-06, 0.86868, 4.4666000000000006E-06, 2.1000000000000001E-13, 
DataValue, 2.61, 1, 7.8000000000000011E-13, 4.3998000000000006E-06, 0.8668, 4.3998000000000006E-06, 7.8000000000000011E-13, 
DataValue, 2.58, 1, -2.5E-13, 4.305E-06, 0.8648, 4.305E-06, 2.5E-13, 
DataValue, 2.5500000000000003, 1, -6.7000000000000007E-13, 4.2084E-06, 0.8632, 4.2084E-06, 6.7000000000000007E-13, 
DataValue, 2.52, 1, 6.0000000000000007E-13, 4.1227E-06, 0.86052, 4.1227E-06, 6.0000000000000007E-13, 
DataValue, 2.49, 1, 1.2000000000000002E-13, 4.0578E-06, 0.85739999999999994, 4.0578E-06, 1.2000000000000002E-13, 
DataValue, 2.46, 1, -2.1000000000000001E-13, 3.9891000000000005E-06, 0.85427999999999993, 3.9891000000000005E-06, 2.1000000000000001E-13, 
DataValue, 2.43, 1, 1.4E-13, 3.8923E-06, 0.85183999999999993, 3.8923E-06, 1.4E-13, 
DataValue, 2.4, 1, 5.4E-13, 3.8251E-06, 0.84824, 3.8251E-06, 5.4E-13, 
