
SetupTitle, inv-vovg
PrimitiveTest, I/V Sweep
TestParameter, Context.MainFrame, B1500A
TestParameter, Channel.UnitType, SMU, SMU, SMU, SMU
TestParameter, Channel.Unit, SMU4:HR, SMU1:HP, SMU3:HR, SMU2:HP
TestParameter, Channel.IName, Ibg, Idd, Io1, Io2
TestParameter, Channel.VName, Vbg, Vdd, Vo1, VSS
TestParameter, Channel.Mode, V, V, I, COMMON
TestParameter, Channel.Func, VAR1, VAR2, CONST, CONST
TestParameter, Channel.Index, 
TestParameter, Channel.Time, 
TestParameter, Measurement.Port.Unit, SMU4:HR, SMU1:HP, SMU3:HR, SMU2:HP
TestParameter, Measurement.Port.SeriesResistor, NONE, NONE, NONE, NONE
TestParameter, Measurement.Port.Filter, ON, ON, ON, ON
TestParameter, Measurement.Port.OutputVoltageComparison, 0, 0, 0, 0
TestParameter, Measurement.Primary.Locus, Double
TestParameter, Measurement.Primary.Scale, LINEAR
TestParameter, Measurement.Primary.Start, 0
TestParameter, Measurement.Primary.Stop, 3
TestParameter, Measurement.Primary.Step, 0.03
TestParameter, Measurement.Primary.Compliance, 1E-08
TestParameter, Measurement.Primary.PowerCompliance, 0
TestParameter, Measurement.Aborting.Condition, CONTINUE AT ANY
TestParameter, Measurement.PostOutput.Value, START
TestParameter, Measurement.PostOutput.Retention, OFF
TestParameter, Measurement.Secondary.Start, 1
TestParameter, Measurement.Secondary.Count, 3
TestParameter, Measurement.Secondary.Step, 1
TestParameter, Measurement.Secondary.Compliance, 0.001
TestParameter, Measurement.Secondary.PowerCompliance, 0
TestParameter, Measurement.Bias.Source, 0, 1, 1.0000000000000001E-11, 0
TestParameter, Measurement.Bias.Compliance, 1E-08, 0.001, 5, 1
TestParameter, Measurement.Monitor.Unit, SMU4:HR, SMU1:HP, SMU3:HR, SMU2:HP
TestParameter, Measurement.Monitor.Adc, HR ADC, HR ADC, HR ADC, HR ADC
TestParameter, Measurement.Monitor.Measurement, Compliance Side, Compliance Side, Compliance Side, Compliance Side
TestParameter, Measurement.Monitor.RangingMode, LIMITED, LIMITED, LIMITED, LIMITED
TestParameter, Measurement.Monitor.RangeBoundary, 1nA, 1nA, 2V, 1nA
TestParameter, Measurement.Monitor.RangeRating, BY FULL RANGE, BY FULL RANGE, BY FULL RANGE
TestParameter, Measurement.Monitor.RangeRatingCoeff, 50, 50, 50
TestParameter, Measurement.Timing.Hold, 4
TestParameter, Measurement.Timing.Delay, 0
TestParameter, Measurement.Adc.HighSpeed.Mode, AUTO
TestParameter, Measurement.Adc.HighSpeed.Coeff, 1
TestParameter, Measurement.Adc.HighResolution.AutoZero, OFF
TestParameter, Measurement.Adc.HighResolution.Mode, AUTO
TestParameter, Measurement.Adc.HighResolution.Coeff, 6
TestParameter, Measurement.WaitTime.Source.Coeff, 1
TestParameter, Measurement.WaitTime.Source.Offset, 0
TestParameter, Measurement.WaitTime.Monitor.Coeff, 1
TestParameter, Measurement.WaitTime.Monitor.Offset, 0
TestParameter, Function.User.Name, absIdd, absIbg
TestParameter, Function.User.Unit, A, A
TestParameter, Function.User.Definition, abs(Idd), abs(Ibg)
TestParameter, Output.Graph.Enabled, true
TestParameter, Output.Graph.AutoScaling, false
TestParameter, Output.Graph.XAxis.Data, Vbg
TestParameter, Output.Graph.XAxis.Scale, Linear
TestParameter, Output.Graph.XAxis.Left, 0
TestParameter, Output.Graph.XAxis.Right, 3
TestParameter, Output.Graph.XAxis.RunTimeAutoScale, true
TestParameter, Output.Graph.YAxis.Data, absIdd, absIbg, Vo1
TestParameter, Output.Graph.YAxis.Scale, Linear, Linear, Linear
TestParameter, Output.Graph.YAxis.Bottom, 0, 0, -5
TestParameter, Output.Graph.YAxis.Top, 1, 1, 5
TestParameter, Output.Graph.YAxis.Group, , , 
TestParameter, Output.Graph.YAxis.RunTimeAutoScale, true, true, true
TestParameter, Output.List.Data, Vbg, Vo2, Vo1, Vbg, Vdd, Ibg, Idd, absIdd, absIbg
TestParameter, AutoAnalysis.Interpolation, false
TestParameter, AutoAnalysis.Var2StepCount, 1
TestParameter, AutoAnalysis.Var2StepScript, 
TestParameter, AutoAnalysis.Line1.Enabled, false
TestParameter, AutoAnalysis.Line1.Type, 1
TestParameter, AutoAnalysis.Line1.Fix, True
TestParameter, AutoAnalysis.Line1.YAxis, 0
TestParameter, AutoAnalysis.Line1.Point1.Type, 0
TestParameter, AutoAnalysis.Line1.Point1.XY.X, 
TestParameter, AutoAnalysis.Line1.Point1.XY.Y, 
TestParameter, AutoAnalysis.Line1.Point1.Data.Var, 
TestParameter, AutoAnalysis.Line1.Point1.Data.Condition, 
TestParameter, AutoAnalysis.Line1.Point1.Data.Start, false
TestParameter, AutoAnalysis.Line1.Point1.Data.StartVar, 
TestParameter, AutoAnalysis.Line1.Point1.Data.StartCondition, 
TestParameter, AutoAnalysis.Line1.Point2.Type, 0
TestParameter, AutoAnalysis.Line1.Point2.XY.X, 
TestParameter, AutoAnalysis.Line1.Point2.XY.Y, 
TestParameter, AutoAnalysis.Line1.Point2.Data.Var, 
TestParameter, AutoAnalysis.Line1.Point2.Data.Condition, 
TestParameter, AutoAnalysis.Line1.Point2.Data.Start, false
TestParameter, AutoAnalysis.Line1.Point2.Data.StartVar, 
TestParameter, AutoAnalysis.Line1.Point2.Data.StartCondition, 
TestParameter, AutoAnalysis.Line1.GradientExpr, 0
TestParameter, AutoAnalysis.Line2.Enabled, false
TestParameter, AutoAnalysis.Line2.Type, 1
TestParameter, AutoAnalysis.Line2.Fix, True
TestParameter, AutoAnalysis.Line2.YAxis, 0
TestParameter, AutoAnalysis.Line2.Point1.Type, 0
TestParameter, AutoAnalysis.Line2.Point1.XY.X, 
TestParameter, AutoAnalysis.Line2.Point1.XY.Y, 
TestParameter, AutoAnalysis.Line2.Point1.Data.Var, 
TestParameter, AutoAnalysis.Line2.Point1.Data.Condition, 
TestParameter, AutoAnalysis.Line2.Point1.Data.Start, false
TestParameter, AutoAnalysis.Line2.Point1.Data.StartVar, 
TestParameter, AutoAnalysis.Line2.Point1.Data.StartCondition, 
TestParameter, AutoAnalysis.Line2.Point2.Type, 0
TestParameter, AutoAnalysis.Line2.Point2.XY.X, 
TestParameter, AutoAnalysis.Line2.Point2.XY.Y, 
TestParameter, AutoAnalysis.Line2.Point2.Data.Var, 
TestParameter, AutoAnalysis.Line2.Point2.Data.Condition, 
TestParameter, AutoAnalysis.Line2.Point2.Data.Start, false
TestParameter, AutoAnalysis.Line2.Point2.Data.StartVar, 
TestParameter, AutoAnalysis.Line2.Point2.Data.StartCondition, 
TestParameter, AutoAnalysis.Line2.GradientExpr, 0
TestParameter, AutoAnalysis.Marker.Enabled, false
TestParameter, AutoAnalysis.Marker.Data.Var, 
TestParameter, AutoAnalysis.Marker.Data.Condition, 
TestParameter, AutoAnalysis.Marker.Data.Start, false
TestParameter, AutoAnalysis.Marker.Data.StartVar, 
TestParameter, AutoAnalysis.Marker.Data.StartCondition, 
MetaData, TestRecord.EntryPoint, true
MetaData, TestRecord.RecordTime, 01/11/2023 00:22:50
MetaData, TestRecord.TestTarget, 
MetaData, TestRecord.IterationIndex, 1
MetaData, TestRecord.Preservation, true
MetaData, TestRecord.Flag, 
MetaData, TestRecord.Remarks, 
MetaData, TestRecord.LinkKey, 5e422fb7-a629-4f3d-a76b-d26108e45ee1
MetaData, TestRecord.Parameters, 
Dimension1, 202, 202, 202, 202, 202, 202, 202, 202
Dimension2, 3, 3, 3, 3, 3, 3, 3, 3
DataName, Vbg, Vdd, Ibg, Idd, Vo1, absIdd, absIbg, Vo2
DataValue, 0, 1, 1.32E-12, 1.4909000000000002E-06, 0.79416, 1.4909000000000002E-06, 1.32E-12, 
DataValue, 0.03, 1, 4.5000000000000005E-13, 1.4899000000000001E-06, 0.79436, 1.4899000000000001E-06, 4.5000000000000005E-13, 
DataValue, 0.06, 1, -1.1000000000000001E-13, 1.4657000000000002E-06, 0.79508, 1.4657000000000002E-06, 1.1000000000000001E-13, 
DataValue, 0.09, 1, -9.6000000000000015E-13, 1.4549000000000003E-06, 0.79448, 1.4549000000000003E-06, 9.6000000000000015E-13, 
DataValue, 0.12, 1, -1.0000000000000002E-14, 1.478E-06, 0.7922, 1.478E-06, 1.0000000000000002E-14, 
DataValue, 0.15, 1, -3.1000000000000004E-13, 1.4782E-06, 0.78892, 1.4782E-06, 3.1000000000000004E-13, 
DataValue, 0.18, 1, -3.3E-13, 1.4406000000000002E-06, 0.79424, 1.4406000000000002E-06, 3.3E-13, 
DataValue, 0.21, 1, 3.9000000000000005E-13, 1.4497E-06, 0.79172, 1.4497E-06, 3.9000000000000005E-13, 
DataValue, 0.24, 1, 2.0000000000000003E-14, 1.4753E-06, 0.78564, 1.4753E-06, 2.0000000000000003E-14, 
DataValue, 0.27, 1, -9.5E-13, 1.4691E-06, 0.78323999999999994, 1.4691E-06, 9.5E-13, 
DataValue, 0.3, 1, 3.1000000000000004E-13, 1.4972000000000003E-06, 0.77611999999999992, 1.4972000000000003E-06, 3.1000000000000004E-13, 
DataValue, 0.33, 1, -1.0600000000000001E-12, 1.5049000000000002E-06, 0.76644, 1.5049000000000002E-06, 1.0600000000000001E-12, 
DataValue, 0.36, 1, 9.6000000000000015E-13, 1.5026000000000002E-06, 0.76196, 1.5026000000000002E-06, 9.6000000000000015E-13, 
DataValue, 0.39, 1, -5.4E-13, 1.5205E-06, 0.74888, 1.5205E-06, 5.4E-13, 
DataValue, 0.42, 1, -1.4800000000000002E-12, 1.5124000000000001E-06, 0.73759999999999992, 1.5124000000000001E-06, 1.4800000000000002E-12, 
DataValue, 0.45, 1, 1.6700000000000002E-12, 1.5191000000000002E-06, 0.72212, 1.5191000000000002E-06, 1.6700000000000002E-12, 
DataValue, 0.48, 1, 9.6000000000000015E-13, 1.5253000000000002E-06, 0.69768, 1.5253000000000002E-06, 9.6000000000000015E-13, 
DataValue, 0.51, 1, -1.59E-12, 1.5139000000000002E-06, 0.67036, 1.5139000000000002E-06, 1.59E-12, 
DataValue, 0.54, 1, -5.5000000000000008E-13, 1.5109000000000002E-06, 0.65592, 1.5109000000000002E-06, 5.5000000000000008E-13, 
DataValue, 0.57000000000000006, 1, -3.0000000000000005E-14, 1.5080000000000002E-06, 0.62496, 1.5080000000000002E-06, 3.0000000000000005E-14, 
DataValue, 0.6, 1, -8.7E-13, 1.5007E-06, 0.60936, 1.5007E-06, 8.7E-13, 
DataValue, 0.63, 1, 7.3E-13, 1.506E-06, 0.596, 1.506E-06, 7.3E-13, 
DataValue, 0.66, 1, -1.0000000000000002E-14, 1.5143E-06, 0.58048, 1.5143E-06, 1.0000000000000002E-14, 
DataValue, 0.69000000000000006, 1, -1.8400000000000002E-12, 1.5162000000000002E-06, 0.5716, 1.5162000000000002E-06, 1.8400000000000002E-12, 
DataValue, 0.72, 1, 1.46E-12, 1.5389000000000002E-06, 0.55643999999999993, 1.5389000000000002E-06, 1.46E-12, 
DataValue, 0.75, 1, 2.0200000000000003E-12, 1.5499000000000002E-06, 0.54743999999999993, 1.5499000000000002E-06, 2.0200000000000003E-12, 
DataValue, 0.78, 1, 3.8000000000000005E-13, 1.5625E-06, 0.53855999999999993, 1.5625E-06, 3.8000000000000005E-13, 
DataValue, 0.81, 1, -1.5000000000000002E-13, 1.5957000000000002E-06, 0.53064, 1.5957000000000002E-06, 1.5000000000000002E-13, 
DataValue, 0.84, 1, 7.4000000000000008E-13, 1.6183000000000002E-06, 0.52512, 1.6183000000000002E-06, 7.4000000000000008E-13, 
DataValue, 0.87, 1, -6.1E-13, 1.6404000000000002E-06, 0.52579999999999993, 1.6404000000000002E-06, 6.1E-13, 
DataValue, 0.9, 1, 8.4000000000000006E-13, 1.6656000000000002E-06, 0.52052, 1.6656000000000002E-06, 8.4000000000000006E-13, 
DataValue, 0.93, 1, 1.1100000000000001E-12, 1.6946000000000003E-06, 0.518, 1.6946000000000003E-06, 1.1100000000000001E-12, 
DataValue, 0.96, 1, 1.6000000000000003E-13, 1.7267000000000001E-06, 0.51456, 1.7267000000000001E-06, 1.6000000000000003E-13, 
DataValue, 0.99, 1, 3.5E-13, 1.7735000000000003E-06, 0.51203999999999994, 1.7735000000000003E-06, 3.5E-13, 
DataValue, 1.02, 1, 1.04E-12, 1.8142000000000001E-06, 0.51159999999999994, 1.8142000000000001E-06, 1.04E-12, 
DataValue, 1.05, 1, 2.0700000000000003E-12, 1.8363E-06, 0.51628, 1.8363E-06, 2.0700000000000003E-12, 
DataValue, 1.08, 1, 9.0000000000000008E-14, 1.9002000000000003E-06, 0.5146, 1.9002000000000003E-06, 9.0000000000000008E-14, 
DataValue, 1.11, 1, 1.02E-12, 1.9324000000000003E-06, 0.51388, 1.9324000000000003E-06, 1.02E-12, 
DataValue, 1.1400000000000001, 1, 8.300000000000001E-13, 1.9772000000000003E-06, 0.51835999999999993, 1.9772000000000003E-06, 8.300000000000001E-13, 
DataValue, 1.17, 1, 1E-13, 2.0236000000000004E-06, 0.52152, 2.0236000000000004E-06, 1E-13, 
DataValue, 1.2, 1, 1.3900000000000001E-12, 2.0928E-06, 0.524, 2.0928E-06, 1.3900000000000001E-12, 
DataValue, 1.23, 1, 6.400000000000001E-13, 2.1526000000000004E-06, 0.528, 2.1526000000000004E-06, 6.400000000000001E-13, 
DataValue, 1.26, 1, -5.4E-13, 2.2239000000000004E-06, 0.5324, 2.2239000000000004E-06, 5.4E-13, 
DataValue, 1.29, 1, 7.2000000000000006E-13, 2.2685000000000004E-06, 0.53823999999999994, 2.2685000000000004E-06, 7.2000000000000006E-13, 
DataValue, 1.32, 1, 1.7200000000000001E-12, 2.3511000000000002E-06, 0.54184, 2.3511000000000002E-06, 1.7200000000000001E-12, 
DataValue, 1.35, 1, -1.6000000000000003E-13, 2.4014000000000004E-06, 0.54728, 2.4014000000000004E-06, 1.6000000000000003E-13, 
DataValue, 1.3800000000000001, 1, 1E-13, 2.4931000000000003E-06, 0.55087999999999993, 2.4931000000000003E-06, 1E-13, 
DataValue, 1.41, 1, 9.0000000000000008E-14, 2.5578000000000003E-06, 0.55599999999999994, 2.5578000000000003E-06, 9.0000000000000008E-14, 
DataValue, 1.44, 1, 2.5E-13, 2.6345000000000004E-06, 0.5624, 2.6345000000000004E-06, 2.5E-13, 
DataValue, 1.47, 1, -1.0000000000000002E-14, 2.7216000000000003E-06, 0.56844, 2.7216000000000003E-06, 1.0000000000000002E-14, 
DataValue, 1.5, 1, 9.2000000000000012E-13, 2.7947E-06, 0.57596, 2.7947E-06, 9.2000000000000012E-13, 
DataValue, 1.53, 1, 6.7000000000000007E-13, 2.8693E-06, 0.58316, 2.8693E-06, 6.7000000000000007E-13, 
DataValue, 1.56, 1, -1.1000000000000001E-13, 2.9630000000000003E-06, 0.58776, 2.9630000000000003E-06, 1.1000000000000001E-13, 
DataValue, 1.59, 1, 6.8E-13, 3.0369E-06, 0.59712, 3.0369E-06, 6.8E-13, 
DataValue, 1.62, 1, 7.3E-13, 3.1392000000000004E-06, 0.6036, 3.1392000000000004E-06, 7.3E-13, 
DataValue, 1.6500000000000001, 1, -3.0000000000000005E-14, 3.2251000000000003E-06, 0.61115999999999993, 3.2251000000000003E-06, 3.0000000000000005E-14, 
DataValue, 1.68, 1, 1.6000000000000003E-13, 3.3283000000000004E-06, 0.61884, 3.3283000000000004E-06, 1.6000000000000003E-13, 
DataValue, 1.71, 1, 4.1E-13, 3.3998000000000005E-06, 0.62735999999999992, 3.3998000000000005E-06, 4.1E-13, 
DataValue, 1.74, 1, -5E-14, 3.5000000000000004E-06, 0.63372, 3.5000000000000004E-06, 5E-14, 
DataValue, 1.77, 1, 3.2000000000000005E-13, 3.5910000000000004E-06, 0.644, 3.5910000000000004E-06, 3.2000000000000005E-13, 
DataValue, 1.8, 1, -3.3E-13, 3.6765000000000003E-06, 0.65304, 3.6765000000000003E-06, 3.3E-13, 
DataValue, 1.83, 1, 2.1000000000000001E-13, 3.8269000000000006E-06, 0.6592, 3.8269000000000006E-06, 2.1000000000000001E-13, 
DataValue, 1.86, 1, 1.5000000000000002E-13, 3.9089000000000008E-06, 0.66711999999999994, 3.9089000000000008E-06, 1.5000000000000002E-13, 
DataValue, 1.8900000000000001, 1, 3.3E-13, 4.0195E-06, 0.67452, 4.0195E-06, 3.3E-13, 
DataValue, 1.92, 1, -5E-14, 4.1215E-06, 0.68192, 4.1215E-06, 5E-14, 
DataValue, 1.95, 1, 7.3E-13, 4.2613E-06, 0.68868, 4.2613E-06, 7.3E-13, 
DataValue, 1.98, 1, 9.6000000000000015E-13, 4.3545E-06, 0.69756, 4.3545E-06, 9.6000000000000015E-13, 
DataValue, 2.0100000000000002, 1, 6.3E-13, 4.4691E-06, 0.70504, 4.4691E-06, 6.3E-13, 
DataValue, 2.04, 1, 1.4E-13, 4.5709000000000006E-06, 0.71188, 4.5709000000000006E-06, 1.4E-13, 
DataValue, 2.07, 1, 8.9E-13, 4.6995000000000005E-06, 0.71936, 4.6995000000000005E-06, 8.9E-13, 
DataValue, 2.1, 1, 1.7E-13, 4.7967E-06, 0.72568, 4.7967E-06, 1.7E-13, 
DataValue, 2.13, 1, -8.4000000000000006E-13, 4.9177E-06, 0.73083999999999993, 4.9177E-06, 8.4000000000000006E-13, 
DataValue, 2.16, 1, 5.1E-13, 5.0299000000000007E-06, 0.73859999999999992, 5.0299000000000007E-06, 5.1E-13, 
DataValue, 2.19, 1, 6.9000000000000009E-13, 5.1616000000000007E-06, 0.74444, 5.1616000000000007E-06, 6.9000000000000009E-13, 
DataValue, 2.22, 1, 0, 5.3053000000000007E-06, 0.7474, 5.3053000000000007E-06, 0, 
DataValue, 2.25, 1, 7.8000000000000011E-13, 5.4091000000000004E-06, 0.75308, 5.4091000000000004E-06, 7.8000000000000011E-13, 
DataValue, 2.2800000000000002, 1, 4E-13, 5.5085000000000007E-06, 0.75908, 5.5085000000000007E-06, 4E-13, 
DataValue, 2.31, 1, 1E-13, 5.6429000000000006E-06, 0.76267999999999991, 5.6429000000000006E-06, 1E-13, 
DataValue, 2.34, 1, -8.0000000000000013E-14, 5.7588000000000007E-06, 0.76676, 5.7588000000000007E-06, 8.0000000000000013E-14, 
DataValue, 2.37, 1, 6.7000000000000007E-13, 5.9119000000000009E-06, 0.77016, 5.9119000000000009E-06, 6.7000000000000007E-13, 
DataValue, 2.4, 1, 1.2000000000000002E-13, 6.0110000000000006E-06, 0.77348, 6.0110000000000006E-06, 1.2000000000000002E-13, 
DataValue, 2.43, 1, -2E-13, 6.1254000000000007E-06, 0.77843999999999991, 6.1254000000000007E-06, 2E-13, 
DataValue, 2.46, 1, 0, 6.241800000000001E-06, 0.78055999999999992, 6.241800000000001E-06, 0, 
DataValue, 2.49, 1, -1E-13, 6.3726000000000006E-06, 0.78352, 6.3726000000000006E-06, 1E-13, 
DataValue, 2.52, 1, -1.0000000000000002E-14, 6.5187000000000008E-06, 0.78608, 6.5187000000000008E-06, 1.0000000000000002E-14, 
DataValue, 2.5500000000000003, 1, 1.7E-13, 6.667500000000001E-06, 0.78848, 6.667500000000001E-06, 1.7E-13, 
DataValue, 2.58, 1, 8.1000000000000008E-13, 6.7044000000000006E-06, 0.79243999999999992, 6.7044000000000006E-06, 8.1000000000000008E-13, 
DataValue, 2.61, 1, 1.4E-13, 6.8150000000000008E-06, 0.7938, 6.8150000000000008E-06, 1.4E-13, 
DataValue, 2.64, 1, 8.8000000000000009E-13, 6.9538000000000011E-06, 0.79643999999999993, 6.9538000000000011E-06, 8.8000000000000009E-13, 
DataValue, 2.67, 1, 4.1E-13, 7.1015000000000005E-06, 0.79755999999999994, 7.1015000000000005E-06, 4.1E-13, 
DataValue, 2.7, 1, -5E-14, 7.1801000000000009E-06, 0.79972, 7.1801000000000009E-06, 5E-14, 
DataValue, 2.73, 1, 7.2000000000000006E-13, 7.3307000000000008E-06, 0.80131999999999992, 7.3307000000000008E-06, 7.2000000000000006E-13, 
DataValue, 2.7600000000000002, 1, 6.400000000000001E-13, 7.4247000000000011E-06, 0.80343999999999993, 7.4247000000000011E-06, 6.400000000000001E-13, 
DataValue, 2.79, 1, 5E-14, 7.5299000000000005E-06, 0.80487999999999993, 7.5299000000000005E-06, 5E-14, 
DataValue, 2.82, 1, 3.4E-13, 7.6959E-06, 0.80563999999999991, 7.6959E-06, 3.4E-13, 
DataValue, 2.85, 1, 5.5000000000000008E-13, 7.7917E-06, 0.80752, 7.7917E-06, 5.5000000000000008E-13, 
DataValue, 2.88, 1, -1.0000000000000002E-14, 7.906E-06, 0.80912, 7.906E-06, 1.0000000000000002E-14, 
DataValue, 2.91, 1, -1.0000000000000002E-14, 8.0544E-06, 0.80896, 8.0544E-06, 1.0000000000000002E-14, 
DataValue, 2.94, 1, 1.03E-12, 8.174E-06, 0.80896, 8.174E-06, 1.03E-12, 
DataValue, 2.97, 1, 5.5000000000000008E-13, 8.257100000000001E-06, 0.81052, 8.257100000000001E-06, 5.5000000000000008E-13, 
DataValue, 3, 1, 4.8000000000000008E-13, 8.3814E-06, 0.81087999999999993, 8.3814E-06, 4.8000000000000008E-13, 
DataValue, 3, 1, 1.9000000000000002E-13, 8.3998E-06, 0.81143999999999994, 8.3998E-06, 1.9000000000000002E-13, 
DataValue, 2.97, 1, 2.2000000000000002E-13, 8.1958E-06, 0.81187999999999994, 8.1958E-06, 2.2000000000000002E-13, 
DataValue, 2.94, 1, 3.4E-13, 8.0362000000000011E-06, 0.80936, 8.0362000000000011E-06, 3.4E-13, 
DataValue, 2.91, 1, 3.6000000000000003E-13, 7.8349E-06, 0.80987999999999993, 7.8349E-06, 3.6000000000000003E-13, 
DataValue, 2.88, 1, 1.2000000000000002E-13, 7.662E-06, 0.80931999999999993, 7.662E-06, 1.2000000000000002E-13, 
DataValue, 2.85, 1, -2.9000000000000003E-13, 7.5118000000000007E-06, 0.80812, 7.5118000000000007E-06, 2.9000000000000003E-13, 
DataValue, 2.82, 1, -1.7E-13, 7.3465000000000007E-06, 0.80652, 7.3465000000000007E-06, 1.7E-13, 
DataValue, 2.79, 1, -3.5E-13, 7.2062000000000006E-06, 0.80492, 7.2062000000000006E-06, 3.5E-13, 
DataValue, 2.7600000000000002, 1, -3.3E-13, 7.0130000000000004E-06, 0.80492, 7.0130000000000004E-06, 3.3E-13, 
DataValue, 2.73, 1, 4E-13, 6.8663000000000006E-06, 0.80275999999999992, 6.8663000000000006E-06, 4E-13, 
DataValue, 2.7, 1, 1.0000000000000002E-14, 6.6756000000000009E-06, 0.80116, 6.6756000000000009E-06, 1.0000000000000002E-14, 
DataValue, 2.67, 1, -2.0000000000000003E-14, 6.6075000000000007E-06, 0.79831999999999992, 6.6075000000000007E-06, 2.0000000000000003E-14, 
DataValue, 2.64, 1, 6.7000000000000007E-13, 6.4139000000000005E-06, 0.79728, 6.4139000000000005E-06, 6.7000000000000007E-13, 
DataValue, 2.61, 1, 2.1000000000000001E-13, 6.2549000000000009E-06, 0.7942, 6.2549000000000009E-06, 2.1000000000000001E-13, 
DataValue, 2.58, 1, -2.9000000000000003E-13, 6.1345E-06, 0.79204, 6.1345E-06, 2.9000000000000003E-13, 
DataValue, 2.5500000000000003, 1, 5.1E-13, 6.0253000000000006E-06, 0.78804, 6.0253000000000006E-06, 5.1E-13, 
DataValue, 2.52, 1, 7E-14, 5.8365000000000008E-06, 0.78567999999999993, 5.8365000000000008E-06, 7E-14, 
