
SetupTitle, FET-vovbg
PrimitiveTest, I/V Sweep
TestParameter, Context.MainFrame, B1500A
TestParameter, Channel.UnitType, SMU, SMU, SMU, SMU
TestParameter, Channel.Unit, SMU2:HP, SMU4:HR, SMU3:HR, SMU1:HP
TestParameter, Channel.IName, Ibg, Idd, Io, I1
TestParameter, Channel.VName, Vbg, Vdd, Vo, V1
TestParameter, Channel.Mode, V, V, I, COMMON
TestParameter, Channel.Func, VAR1, CONST, CONST, CONST
TestParameter, Channel.Index, 
TestParameter, Channel.Time, 
TestParameter, Measurement.Port.Unit, SMU2:HP, SMU4:HR, SMU3:HR, SMU1:HP
TestParameter, Measurement.Port.SeriesResistor, NONE, NONE, NONE, NONE
TestParameter, Measurement.Port.Filter, ON, ON, ON, ON
TestParameter, Measurement.Port.OutputVoltageComparison, 0, 0, 0, 0
TestParameter, Measurement.Primary.Locus, Double
TestParameter, Measurement.Primary.Scale, LINEAR
TestParameter, Measurement.Primary.Start, 0
TestParameter, Measurement.Primary.Stop, 3
TestParameter, Measurement.Primary.Step, 0.03
TestParameter, Measurement.Primary.Compliance, 1E-08
TestParameter, Measurement.Primary.PowerCompliance, 0
TestParameter, Measurement.Aborting.Condition, CONTINUE AT ANY
TestParameter, Measurement.PostOutput.Value, START
TestParameter, Measurement.PostOutput.Retention, OFF
TestParameter, Measurement.Bias.Source, 0, 3, 1.0000000000000001E-11, 0
TestParameter, Measurement.Bias.Compliance, 1E-08, 0.001, 10, 1
TestParameter, Measurement.Monitor.Unit, SMU2:HP, SMU4:HR, SMU3:HR, SMU1:HP
TestParameter, Measurement.Monitor.Adc, HR ADC, HR ADC, HR ADC, HR ADC
TestParameter, Measurement.Monitor.Measurement, Compliance Side, Compliance Side, Compliance Side, Compliance Side
TestParameter, Measurement.Monitor.RangingMode, LIMITED, LIMITED, LIMITED, LIMITED
TestParameter, Measurement.Monitor.RangeBoundary, 1nA, 1nA, 2V, 1nA
TestParameter, Measurement.Monitor.RangeRating, BY FULL RANGE, BY FULL RANGE, BY FULL RANGE
TestParameter, Measurement.Monitor.RangeRatingCoeff, 50, 50, 50
TestParameter, Measurement.Timing.Hold, 0
TestParameter, Measurement.Timing.Delay, 0
TestParameter, Measurement.Adc.HighSpeed.Mode, AUTO
TestParameter, Measurement.Adc.HighSpeed.Coeff, 1
TestParameter, Measurement.Adc.HighResolution.AutoZero, OFF
TestParameter, Measurement.Adc.HighResolution.Mode, AUTO
TestParameter, Measurement.Adc.HighResolution.Coeff, 6
TestParameter, Measurement.WaitTime.Source.Coeff, 1
TestParameter, Measurement.WaitTime.Source.Offset, 0
TestParameter, Measurement.WaitTime.Monitor.Coeff, 1
TestParameter, Measurement.WaitTime.Monitor.Offset, 0
TestParameter, Function.User.Name, absIdd, absIbg
TestParameter, Function.User.Unit, A, A
TestParameter, Function.User.Definition, abs(Idd), abs(Ibg)
TestParameter, Output.Graph.Enabled, true
TestParameter, Output.Graph.AutoScaling, false
TestParameter, Output.Graph.XAxis.Data, Vbg
TestParameter, Output.Graph.XAxis.Scale, Linear
TestParameter, Output.Graph.XAxis.Left, -30
TestParameter, Output.Graph.XAxis.Right, 30
TestParameter, Output.Graph.XAxis.RunTimeAutoScale, true
TestParameter, Output.Graph.YAxis.Data, absIdd, absIbg, Vo
TestParameter, Output.Graph.YAxis.Scale, Linear, Linear, Linear
TestParameter, Output.Graph.YAxis.Bottom, 0, 0, -10
TestParameter, Output.Graph.YAxis.Top, 1, 1, 10
TestParameter, Output.Graph.YAxis.Group, , , 
TestParameter, Output.Graph.YAxis.RunTimeAutoScale, true, true, false
TestParameter, Output.List.Data, Vbg, Vdd, Ibg, Idd, absIdd, absIbg, Vo, Io1
TestParameter, AutoAnalysis.Interpolation, false
TestParameter, AutoAnalysis.Var2StepCount, 1
TestParameter, AutoAnalysis.Var2StepScript, 
TestParameter, AutoAnalysis.Line1.Enabled, false
TestParameter, AutoAnalysis.Line1.Type, 1
TestParameter, AutoAnalysis.Line1.Fix, True
TestParameter, AutoAnalysis.Line1.YAxis, 0
TestParameter, AutoAnalysis.Line1.Point1.Type, 0
TestParameter, AutoAnalysis.Line1.Point1.XY.X, 
TestParameter, AutoAnalysis.Line1.Point1.XY.Y, 
TestParameter, AutoAnalysis.Line1.Point1.Data.Var, 
TestParameter, AutoAnalysis.Line1.Point1.Data.Condition, 
TestParameter, AutoAnalysis.Line1.Point1.Data.Start, false
TestParameter, AutoAnalysis.Line1.Point1.Data.StartVar, 
TestParameter, AutoAnalysis.Line1.Point1.Data.StartCondition, 
TestParameter, AutoAnalysis.Line1.Point2.Type, 0
TestParameter, AutoAnalysis.Line1.Point2.XY.X, 
TestParameter, AutoAnalysis.Line1.Point2.XY.Y, 
TestParameter, AutoAnalysis.Line1.Point2.Data.Var, 
TestParameter, AutoAnalysis.Line1.Point2.Data.Condition, 
TestParameter, AutoAnalysis.Line1.Point2.Data.Start, false
TestParameter, AutoAnalysis.Line1.Point2.Data.StartVar, 
TestParameter, AutoAnalysis.Line1.Point2.Data.StartCondition, 
TestParameter, AutoAnalysis.Line1.GradientExpr, 0
TestParameter, AutoAnalysis.Line2.Enabled, false
TestParameter, AutoAnalysis.Line2.Type, 1
TestParameter, AutoAnalysis.Line2.Fix, True
TestParameter, AutoAnalysis.Line2.YAxis, 0
TestParameter, AutoAnalysis.Line2.Point1.Type, 0
TestParameter, AutoAnalysis.Line2.Point1.XY.X, 
TestParameter, AutoAnalysis.Line2.Point1.XY.Y, 
TestParameter, AutoAnalysis.Line2.Point1.Data.Var, 
TestParameter, AutoAnalysis.Line2.Point1.Data.Condition, 
TestParameter, AutoAnalysis.Line2.Point1.Data.Start, false
TestParameter, AutoAnalysis.Line2.Point1.Data.StartVar, 
TestParameter, AutoAnalysis.Line2.Point1.Data.StartCondition, 
TestParameter, AutoAnalysis.Line2.Point2.Type, 0
TestParameter, AutoAnalysis.Line2.Point2.XY.X, 
TestParameter, AutoAnalysis.Line2.Point2.XY.Y, 
TestParameter, AutoAnalysis.Line2.Point2.Data.Var, 
TestParameter, AutoAnalysis.Line2.Point2.Data.Condition, 
TestParameter, AutoAnalysis.Line2.Point2.Data.Start, false
TestParameter, AutoAnalysis.Line2.Point2.Data.StartVar, 
TestParameter, AutoAnalysis.Line2.Point2.Data.StartCondition, 
TestParameter, AutoAnalysis.Line2.GradientExpr, 0
TestParameter, AutoAnalysis.Marker.Enabled, false
TestParameter, AutoAnalysis.Marker.Data.Var, 
TestParameter, AutoAnalysis.Marker.Data.Condition, 
TestParameter, AutoAnalysis.Marker.Data.Start, false
TestParameter, AutoAnalysis.Marker.Data.StartVar, 
TestParameter, AutoAnalysis.Marker.Data.StartCondition, 
MetaData, TestRecord.EntryPoint, true
MetaData, TestRecord.RecordTime, 12/04/2022 11:49:55
MetaData, TestRecord.TestTarget, 
MetaData, TestRecord.IterationIndex, 8
MetaData, TestRecord.Preservation, true
MetaData, TestRecord.Flag, 
MetaData, TestRecord.Remarks, 
MetaData, TestRecord.LinkKey, e2594e0c-93d9-47b1-9350-8e9c95a050d0
MetaData, TestRecord.Parameters, 
Dimension1, 202, 202, 202, 202, 202, 202, 202, 202
Dimension2, 1, 1, 1, 1, 1, 1, 1, 1
DataName, Vbg, Vdd, Ibg, Idd, Vo, absIdd, absIbg, Io1
DataValue, 0, 3, 8.4900000000000012E-12, 3.9059E-06, 1.26556, 3.9059E-06, 8.4900000000000012E-12, 
DataValue, 0.03, 3, -5.69E-12, 3.7671000000000003E-06, 1.27336, 3.7671000000000003E-06, 5.69E-12, 
DataValue, 0.06, 3, -3.38E-12, 3.5168000000000004E-06, 1.2796399999999999, 3.5168000000000004E-06, 3.38E-12, 
DataValue, 0.09, 3, -8.12E-12, 3.2266E-06, 1.28352, 3.2266E-06, 8.12E-12, 
DataValue, 0.12, 3, -8.97E-12, 3.0047000000000002E-06, 1.29484, 3.0047000000000002E-06, 8.97E-12, 
DataValue, 0.15, 3, -1.642E-11, 2.7739000000000002E-06, 1.30012, 2.7739000000000002E-06, 1.642E-11, 
DataValue, 0.18, 3, -1.8180000000000002E-11, 2.6066E-06, 1.31144, 2.6066E-06, 1.8180000000000002E-11, 
DataValue, 0.21, 3, -1.737E-11, 2.5424000000000004E-06, 1.33096, 2.5424000000000004E-06, 1.737E-11, 
DataValue, 0.24, 3, -3.106E-11, 2.375E-06, 1.3353599999999999, 2.375E-06, 3.106E-11, 
DataValue, 0.27, 3, -3.106E-11, 2.1368E-06, 1.33372, 2.1368E-06, 3.106E-11, 
DataValue, 0.3, 3, -4.4370000000000004E-11, 1.9504E-06, 1.3462399999999999, 1.9504E-06, 4.4370000000000004E-11, 
DataValue, 0.33, 3, -4.276E-11, 1.9272000000000004E-06, 1.36748, 1.9272000000000004E-06, 4.276E-11, 
DataValue, 0.36, 3, -4.916E-11, 1.8289000000000002E-06, 1.3848, 1.8289000000000002E-06, 4.916E-11, 
DataValue, 0.39, 3, -4.9990000000000007E-11, 1.6998000000000002E-06, 1.39072, 1.6998000000000002E-06, 4.9990000000000007E-11, 
DataValue, 0.42, 3, -4.9390000000000003E-11, 1.5279000000000002E-06, 1.413, 1.5279000000000002E-06, 4.9390000000000003E-11, 
DataValue, 0.45, 3, -5.422E-11, 1.4344000000000002E-06, 1.4115199999999999, 1.4344000000000002E-06, 5.422E-11, 
DataValue, 0.48, 3, -5.437E-11, 1.3477E-06, 1.42648, 1.3477E-06, 5.437E-11, 
DataValue, 0.51, 3, -5.884E-11, 1.2980000000000001E-06, 1.45196, 1.2980000000000001E-06, 5.884E-11, 
DataValue, 0.54, 3, -7.0700000000000012E-11, 1.2422000000000002E-06, 1.47236, 1.2422000000000002E-06, 7.0700000000000012E-11, 
DataValue, 0.57000000000000006, 3, -7.0570000000000008E-11, 1.1432000000000001E-06, 1.4802, 1.1432000000000001E-06, 7.0570000000000008E-11, 
DataValue, 0.6, 3, -7.4510000000000009E-11, 1.0907000000000002E-06, 1.5018799999999999, 1.0907000000000002E-06, 7.4510000000000009E-11, 
DataValue, 0.63, 3, -7.146E-11, 1.0680000000000002E-06, 1.5258399999999999, 1.0680000000000002E-06, 7.146E-11, 
DataValue, 0.66, 3, -7.904E-11, 9.8192E-07, 1.54996, 9.8192E-07, 7.904E-11, 
DataValue, 0.69000000000000006, 3, -8.7160000000000012E-11, 9.159E-07, 1.55752, 9.159E-07, 8.7160000000000012E-11, 
DataValue, 0.72, 3, -8.6120000000000009E-11, 8.5144E-07, 1.5804399999999998, 8.5144E-07, 8.6120000000000009E-11, 
DataValue, 0.75, 3, -9.155000000000001E-11, 8.1656E-07, 1.59836, 8.1656E-07, 9.155000000000001E-11, 
DataValue, 0.78, 3, -7.551E-11, 7.5256E-07, 1.61208, 7.5256E-07, 7.551E-11, 
DataValue, 0.81, 3, -7.296E-11, 7.7002E-07, 1.65048, 7.7002E-07, 7.296E-11, 
DataValue, 0.84, 3, -8.324E-11, 7.0284E-07, 1.66788, 7.0284E-07, 8.324E-11, 
DataValue, 0.87, 3, -9.8960000000000013E-11, 6.9296E-07, 1.6861199999999998, 6.9296E-07, 9.8960000000000013E-11, 
DataValue, 0.9, 3, -9.2260000000000013E-11, 6.2596E-07, 1.6938, 6.2596E-07, 9.2260000000000013E-11, 
DataValue, 0.93, 3, -9.2E-11, 6.1664E-07, 1.72528, 6.1664E-07, 9.2E-11, 
DataValue, 0.96, 3, -8.0030000000000007E-11, 5.5522E-07, 1.73648, 5.5522E-07, 8.0030000000000007E-11, 
DataValue, 0.99, 3, -8.847E-11, 5.6196E-07, 1.76236, 5.6196E-07, 8.847E-11, 
DataValue, 1.02, 3, -9.5910000000000008E-11, 5.3628E-07, 1.78932, 5.3628E-07, 9.5910000000000008E-11, 
DataValue, 1.05, 3, -8.906E-11, 4.9644E-07, 1.80192, 4.9644E-07, 8.906E-11, 
DataValue, 1.08, 3, -6.9350000000000011E-11, 4.2278E-07, 1.8206799999999999, 4.2278E-07, 6.9350000000000011E-11, 
DataValue, 1.11, 3, -8.106E-11, 4.0922E-07, 1.83816, 4.0922E-07, 8.106E-11, 
DataValue, 1.1400000000000001, 3, 3.6320000000000004E-11, 3.7404E-07, 1.8546799999999999, 3.7404E-07, 3.6320000000000004E-11, 
DataValue, 1.17, 3, -7.2850000000000012E-11, 4.0678E-07, 1.7609599999999999, 4.0678E-07, 7.2850000000000012E-11, 
DataValue, 1.2, 3, -9.0250000000000011E-11, 4.6018E-07, 1.47236, 4.6018E-07, 9.0250000000000011E-11, 
DataValue, 1.23, 3, -8.8180000000000012E-11, 5.2476E-07, 1.3885999999999998, 5.2476E-07, 8.8180000000000012E-11, 
DataValue, 1.26, 3, -1.0366000000000001E-10, 5.8542E-07, 1.36604, 5.8542E-07, 1.0366000000000001E-10, 
DataValue, 1.29, 3, -8.8E-11, 6.4998E-07, 1.36896, 6.4998E-07, 8.8E-11, 
DataValue, 1.32, 3, -8.255E-11, 7.5113999999999994E-07, 1.33832, 7.5113999999999994E-07, 8.255E-11, 
DataValue, 1.35, 3, -7.324000000000001E-11, 8.333E-07, 1.32908, 8.333E-07, 7.324000000000001E-11, 
DataValue, 1.3800000000000001, 3, -9.0500000000000011E-11, 8.8548E-07, 1.35124, 8.8548E-07, 9.0500000000000011E-11, 
DataValue, 1.41, 3, -8.2750000000000012E-11, 1.00864E-06, 1.33228, 1.00864E-06, 8.2750000000000012E-11, 
DataValue, 1.44, 3, -9.509E-11, 1.11498E-06, 1.33524, 1.11498E-06, 9.509E-11, 
DataValue, 1.47, 3, -1.0037000000000001E-10, 1.2329E-06, 1.3319999999999999, 1.2329E-06, 1.0037000000000001E-10, 
DataValue, 1.5, 3, -7.679E-11, 1.3180000000000001E-06, 1.33788, 1.3180000000000001E-06, 7.679E-11, 
DataValue, 1.53, 3, -8.572E-11, 1.4611E-06, 1.34568, 1.4611E-06, 8.572E-11, 
DataValue, 1.56, 3, -7.9200000000000008E-11, 1.5903000000000003E-06, 1.34604, 1.5903000000000003E-06, 7.9200000000000008E-11, 
DataValue, 1.59, 3, -8.701E-11, 1.7062E-06, 1.35496, 1.7062E-06, 8.701E-11, 
DataValue, 1.62, 3, -9.099E-11, 1.8799000000000002E-06, 1.35164, 1.8799000000000002E-06, 9.099E-11, 
DataValue, 1.6500000000000001, 3, -1.0739E-10, 2.0348000000000004E-06, 1.36124, 2.0348000000000004E-06, 1.0739E-10, 
DataValue, 1.68, 3, -1.0602000000000001E-10, 2.1721000000000003E-06, 1.36652, 2.1721000000000003E-06, 1.0602000000000001E-10, 
DataValue, 1.71, 3, -7.746000000000001E-11, 2.3110000000000004E-06, 1.37624, 2.3110000000000004E-06, 7.746000000000001E-11, 
DataValue, 1.74, 3, -9.2810000000000013E-11, 2.4944E-06, 1.37872, 2.4944E-06, 9.2810000000000013E-11, 
DataValue, 1.77, 3, -8.3830000000000009E-11, 2.6909000000000004E-06, 1.38608, 2.6909000000000004E-06, 8.3830000000000009E-11, 
DataValue, 1.8, 3, -8.784E-11, 2.8531000000000003E-06, 1.3934799999999998, 2.8531000000000003E-06, 8.784E-11, 
DataValue, 1.83, 3, -9.6850000000000007E-11, 3.0839000000000002E-06, 1.3950399999999998, 3.0839000000000002E-06, 9.6850000000000007E-11, 
DataValue, 1.86, 3, -8.917E-11, 3.2015E-06, 1.40388, 3.2015E-06, 8.917E-11, 
DataValue, 1.8900000000000001, 3, -9.1910000000000009E-11, 3.5177000000000002E-06, 1.40624, 3.5177000000000002E-06, 9.1910000000000009E-11, 
DataValue, 1.92, 3, -9.1060000000000007E-11, 3.7216000000000005E-06, 1.41144, 3.7216000000000005E-06, 9.1060000000000007E-11, 
DataValue, 1.95, 3, -1.0292E-10, 3.9167E-06, 1.41364, 3.9167E-06, 1.0292E-10, 
DataValue, 1.98, 3, -1.0917000000000001E-10, 4.1290000000000006E-06, 1.42356, 4.1290000000000006E-06, 1.0917000000000001E-10, 
DataValue, 2.0100000000000002, 3, -9.953E-11, 4.3838E-06, 1.4285599999999998, 4.3838E-06, 9.953E-11, 
DataValue, 2.04, 3, -8.1730000000000011E-11, 4.5681E-06, 1.4357199999999999, 4.5681E-06, 8.1730000000000011E-11, 
DataValue, 2.07, 3, -8.439E-11, 4.8465E-06, 1.44752, 4.8465E-06, 8.439E-11, 
DataValue, 2.1, 3, -7.442E-11, 5.1158E-06, 1.4465999999999999, 5.1158E-06, 7.442E-11, 
DataValue, 2.13, 3, -7.0900000000000008E-11, 5.3383E-06, 1.4596, 5.3383E-06, 7.0900000000000008E-11, 
DataValue, 2.16, 3, -7.715E-11, 5.6162000000000005E-06, 1.46468, 5.6162000000000005E-06, 7.715E-11, 
DataValue, 2.19, 3, -7.419E-11, 5.8414000000000005E-06, 1.4785199999999998, 5.8414000000000005E-06, 7.419E-11, 
DataValue, 2.22, 3, -7.4290000000000009E-11, 6.0880000000000008E-06, 1.4913999999999998, 6.0880000000000008E-06, 7.4290000000000009E-11, 
DataValue, 2.25, 3, -9.4170000000000009E-11, 6.366200000000001E-06, 1.49532, 6.366200000000001E-06, 9.4170000000000009E-11, 
DataValue, 2.2800000000000002, 3, -7.8230000000000011E-11, 6.5892E-06, 1.50796, 6.5892E-06, 7.8230000000000011E-11, 
DataValue, 2.31, 3, -8.7160000000000012E-11, 6.8645000000000009E-06, 1.5288, 6.8645000000000009E-06, 8.7160000000000012E-11, 
DataValue, 2.34, 3, -8.337E-11, 7.116800000000001E-06, 1.54256, 7.116800000000001E-06, 8.337E-11, 
DataValue, 2.37, 3, -7.9220000000000012E-11, 7.3959000000000006E-06, 1.54592, 7.3959000000000006E-06, 7.9220000000000012E-11, 
DataValue, 2.4, 3, -8.227E-11, 7.6500000000000013E-06, 1.55852, 7.6500000000000013E-06, 8.227E-11, 
DataValue, 2.43, 3, -7.474E-11, 7.9159000000000016E-06, 1.57192, 7.9159000000000016E-06, 7.474E-11, 
DataValue, 2.46, 3, -8.542E-11, 8.227000000000001E-06, 1.5853599999999999, 8.227000000000001E-06, 8.542E-11, 
DataValue, 2.49, 3, -9.0440000000000013E-11, 8.5157E-06, 1.589, 8.5157E-06, 9.0440000000000013E-11, 
DataValue, 2.52, 3, -8.293E-11, 8.8385E-06, 1.6011199999999999, 8.8385E-06, 8.293E-11, 
DataValue, 2.5500000000000003, 3, -7.786E-11, 9.1556000000000009E-06, 1.60968, 9.1556000000000009E-06, 7.786E-11, 
DataValue, 2.58, 3, -9.3530000000000012E-11, 9.4149E-06, 1.61012, 9.4149E-06, 9.3530000000000012E-11, 
DataValue, 2.61, 3, -8.0830000000000007E-11, 9.6593E-06, 1.6277199999999998, 9.6593E-06, 8.0830000000000007E-11, 
DataValue, 2.64, 3, -8.7970000000000007E-11, 9.948E-06, 1.6441599999999998, 9.948E-06, 8.7970000000000007E-11, 
DataValue, 2.67, 3, -8.178E-11, 1.02449E-05, 1.64004, 1.02449E-05, 8.178E-11, 
DataValue, 2.7, 3, -7.891E-11, 1.0546700000000002E-05, 1.65532, 1.0546700000000002E-05, 7.891E-11, 
DataValue, 2.73, 3, -8.653000000000001E-11, 1.0857600000000001E-05, 1.6590799999999999, 1.0857600000000001E-05, 8.653000000000001E-11, 
DataValue, 2.7600000000000002, 3, -7.941E-11, 1.1191700000000002E-05, 1.67112, 1.1191700000000002E-05, 7.941E-11, 
DataValue, 2.79, 3, -8.5320000000000009E-11, 1.1456E-05, 1.69608, 1.1456E-05, 8.5320000000000009E-11, 
DataValue, 2.82, 3, -8.21E-11, 1.1774000000000001E-05, 1.69312, 1.1774000000000001E-05, 8.21E-11, 
DataValue, 2.85, 3, -8.919E-11, 1.205E-05, 1.72, 1.205E-05, 8.919E-11, 
DataValue, 2.88, 3, -1.0192000000000001E-10, 1.2280000000000001E-05, 1.7065199999999998, 1.2280000000000001E-05, 1.0192000000000001E-10, 
DataValue, 2.91, 3, -9.0340000000000008E-11, 1.2664000000000001E-05, 1.72268, 1.2664000000000001E-05, 9.0340000000000008E-11, 
DataValue, 2.94, 3, -1.0705000000000001E-10, 1.2834000000000001E-05, 1.7291999999999999, 1.2834000000000001E-05, 1.0705000000000001E-10, 
DataValue, 2.97, 3, -9.4090000000000008E-11, 1.3274E-05, 1.74796, 1.3274E-05, 9.4090000000000008E-11, 
DataValue, 3, 3, -9.9130000000000011E-11, 1.3478E-05, 1.76236, 1.3478E-05, 9.9130000000000011E-11, 
DataValue, 3, 3, -8.867E-11, 1.3464E-05, 1.7620399999999998, 1.3464E-05, 8.867E-11, 
DataValue, 2.97, 3, -6.454E-11, 1.3028000000000001E-05, 1.7440799999999999, 1.3028000000000001E-05, 6.454E-11, 
DataValue, 2.94, 3, -4.9330000000000006E-11, 1.2624E-05, 1.73016, 1.2624E-05, 4.9330000000000006E-11, 
DataValue, 2.91, 3, -4.027E-11, 1.222E-05, 1.71704, 1.222E-05, 4.027E-11, 
DataValue, 2.88, 3, -2.9000000000000003E-11, 1.1814E-05, 1.7187599999999998, 1.1814E-05, 2.9000000000000003E-11, 
DataValue, 2.85, 3, -1.608E-11, 1.1336000000000001E-05, 1.70648, 1.1336000000000001E-05, 1.608E-11, 
DataValue, 2.82, 3, -1.3550000000000001E-11, 1.1004E-05, 1.69372, 1.1004E-05, 1.3550000000000001E-11, 
DataValue, 2.79, 3, -8.24E-12, 1.0634E-05, 1.6812399999999999, 1.0634E-05, 8.24E-12, 
DataValue, 2.7600000000000002, 3, -1.27E-12, 1.0306000000000001E-05, 1.6710399999999999, 1.0306000000000001E-05, 1.27E-12, 
DataValue, 2.73, 3, -8.6000000000000007E-13, 9.9536E-06, 1.65432, 9.9536E-06, 8.6000000000000007E-13, 
DataValue, 2.7, 3, 4.5000000000000006E-12, 9.602200000000001E-06, 1.6477199999999999, 9.602200000000001E-06, 4.5000000000000006E-12, 
DataValue, 2.67, 3, 6.7800000000000006E-12, 9.2753E-06, 1.6336, 9.2753E-06, 6.7800000000000006E-12, 
DataValue, 2.64, 3, 6.45E-12, 8.9051E-06, 1.63, 8.9051E-06, 6.45E-12, 
DataValue, 2.61, 3, 8.8800000000000009E-12, 8.6353E-06, 1.6163999999999998, 8.6353E-06, 8.8800000000000009E-12, 
DataValue, 2.58, 3, 1.301E-11, 8.2652E-06, 1.6098, 8.2652E-06, 1.301E-11, 
DataValue, 2.5500000000000003, 3, 2.498E-11, 8.0313E-06, 1.6006799999999999, 8.0313E-06, 2.498E-11, 
DataValue, 2.52, 3, 3.539E-11, 7.6683E-06, 1.59628, 7.6683E-06, 3.539E-11, 
DataValue, 2.49, 3, 3.5850000000000004E-11, 7.3142000000000011E-06, 1.575, 7.3142000000000011E-06, 3.5850000000000004E-11, 
DataValue, 2.46, 3, 5.117E-11, 7.0655E-06, 1.56724, 7.0655E-06, 5.117E-11, 
DataValue, 2.43, 3, 4.935E-11, 6.7670000000000006E-06, 1.5553599999999999, 6.7670000000000006E-06, 4.935E-11, 
DataValue, 2.4, 3, 5.8790000000000011E-11, 6.4635000000000009E-06, 1.55664, 6.4635000000000009E-06, 5.8790000000000011E-11, 
DataValue, 2.37, 3, 5.6060000000000005E-11, 6.2220000000000007E-06, 1.5344799999999998, 6.2220000000000007E-06, 5.6060000000000005E-11, 
DataValue, 2.34, 3, 5.1360000000000004E-11, 5.8657000000000004E-06, 1.53844, 5.8657000000000004E-06, 5.1360000000000004E-11, 
DataValue, 2.31, 3, 5.485E-11, 5.6095E-06, 1.52168, 5.6095E-06, 5.485E-11, 
DataValue, 2.2800000000000002, 3, 5.944E-11, 5.3538E-06, 1.5175999999999998, 5.3538E-06, 5.944E-11, 
DataValue, 2.25, 3, 6.6930000000000008E-11, 5.1091000000000008E-06, 1.5036399999999999, 5.1091000000000008E-06, 6.6930000000000008E-11, 
DataValue, 2.22, 3, 8.3390000000000009E-11, 4.7696000000000009E-06, 1.49768, 4.7696000000000009E-06, 8.3390000000000009E-11, 
